Element, Terminal,  I1, %Normal, %Emergency, I2, %I2/I1, I0, %I0/I1, Iresidual, %NEMA
"Vsource.SOURCE",   1,    4111.73,        0,        0,    3958.72,    96.28,    3916.42,    95.25,    11749.3,    189.1
"Vsource.SOURCE",   2,    4111.73,        0,        0,    3958.72,    96.28,    3916.42,    95.25,    11749.3,    189.1
"Transformer.REG1A",   1,    4111.73,    538.2,    394.7,    3958.72,    96.28,    3916.42,    95.25, 5.23869E-009,    189.1
"Transformer.REG1A",   2,    3737.93,        0,        0,    3598.83,    96.28,    3560.39,    95.25, 5.23869E-009,    189.1
"Line.L115",   1,    3737.93,      623,      623,    3598.83,    96.28,    3560.39,    95.25,    10681.2,    189.1
"Line.L115",   2,    3737.94,        0,        0,    3598.83,    96.28,    3560.39,    95.25,    10681.2,    189.1
"Line.L1",   1,          0,        0,        0,          0,        0,          0,        0,     3.2039,        0
"Line.L1",   2,          0,        0,        0,          0,        0,          0,        0,     3.2039,        0
"Line.L2",   1,          0,        0,        0,          0,        0,          0,        0,    16.6768,        0
"Line.L2",   2,          0,        0,        0,          0,        0,          0,        0,    16.6768,        0
"Line.L3",   1,    3731.01,    621.8,    621.8,     3602.7,    96.56,    3560.82,    95.44,    10682.5,    189.7
"Line.L3",   2,    3731.01,        0,        0,     3602.7,    96.56,    3560.82,    95.44,    10682.5,    189.7
"Line.L4",   1,          0,        0,        0,          0,        0,          0,        0,    6.34815,        0
"Line.L4",   2,          0,        0,        0,          0,        0,          0,        0,    6.34815,        0
"Line.L5",   1,          0,        0,        0,          0,        0,          0,        0,    10.3294,        0
"Line.L5",   2,          0,        0,        0,          0,        0,          0,        0,    10.3294,        0
"Line.L6",   1,          0,        0,        0,          0,        0,          0,        0,    6.99762,        0
"Line.L6",   2,          0,        0,        0,          0,        0,          0,        0,    6.99762,        0
"Line.L7",   1,    3730.22,    621.7,    621.7,    3602.43,    96.57,    3561.85,    95.49,    10685.6,    189.7
"Line.L7",   2,    3730.22,        0,        0,    3602.43,    96.57,    3561.85,    95.49,    10685.6,    189.7
"Line.L8",   1,          0,        0,        0,          0,        0,          0,        0,    2.72029,        0
"Line.L8",   2,          0,        0,        0,          0,        0,          0,        0,    2.72029,        0
"Line.L9",   1,          0,        0,        0,          0,        0,          0,        0,    15.1286,        0
"Line.L9",   2,          0,        0,        0,          0,        0,          0,        0,    15.1286,        0
"Line.L10",   1,     3725.9,      621,      621,    3600.34,    96.63,    3566.06,    95.71,    10698.2,    190.1
"Line.L10",   2,     3725.9,        0,        0,    3600.34,    96.63,    3566.06,    95.71,    10698.2,    190.1
"Line.L11",   1,          0,        0,        0,          0,        0,          0,        0,    9.56851,        0
"Line.L11",   2,          0,        0,        0,          0,        0,          0,        0,    9.56851,        0
"Line.L12",   1,          0,        0,        0,          0,        0,          0,        0,    17.3916,        0
"Line.L12",   2,          0,        0,        0,          0,        0,          0,        0,    17.3916,        0
"Line.L13",   1,    3644.77,     1215,    607.5,    3601.59,    98.82,    3576.07,    98.12,    10728.2,    195.9
"Line.L13",   2,    3644.77,        0,        0,    3601.58,    98.81,    3576.07,    98.11,    10728.2,    195.9
"Line.L14",   1,          0,        0,        0,          0,        0,          0,        0,     6.4648,        0
"Line.L14",   2,          0,        0,        0,          0,        0,          0,        0,     6.4648,        0
"Line.L15",   1,          0,        0,        0,          0,        0,          0,        0,    3.10493,        0
"Line.L15",   2,          0,        0,        0,          0,        0,          0,        0,    3.10493,        0
"Line.L16",   1,          0,        0,        0,          0,        0,          0,        0,    6.68219,        0
"Line.L16",   2,          0,        0,        0,          0,        0,          0,        0,    6.68219,        0
"Line.L17",   1,          0,        0,        0,          0,        0,          0,        0,    3.34074,        0
"Line.L17",   2,          0,        0,        0,          0,        0,          0,        0,    3.34074,        0
"Line.L18",   1,          0,        0,        0,          0,        0,          0,        0,    14.3256,        0
"Line.L18",   2,          0,        0,        0,          0,        0,          0,        0,    14.3256,        0
"Line.L19",   1,    3611.52,     1204,    601.9,    3598.62,    99.64,    3593.21,    99.49,    10779.6,    198.8
"Line.L19",   2,    3611.52,        0,        0,    3598.62,    99.64,    3593.21,    99.49,    10779.6,    198.8
"Line.L20",   1,          0,        0,        0,          0,        0,          0,        0,    7.33707,        0
"Line.L20",   2,          0,        0,        0,          0,        0,          0,        0,    7.33707,        0
"Line.L21",   1,          0,        0,        0,          0,        0,          0,        0,    2.09769,        0
"Line.L21",   2,          0,        0,        0,          0,        0,          0,        0,    2.09769,        0
"Line.L22",   1,    3610.98,     1204,    601.8,    3598.08,    99.64,    3592.68,    99.49,      10778,    198.8
"Line.L22",   2,    3610.98,        0,        0,    3598.08,    99.64,    3592.68,    99.49,      10778,    198.8
"Line.L23",   1,          0,        0,        0,          0,        0,          0,        0,    7.26984,        0
"Line.L23",   2,          0,        0,        0,          0,        0,          0,        0,    7.26984,        0
"Line.L24",   1,    3608.84,     1203,    601.5,    3600.14,    99.76,    3592.77,    99.55,    10778.3,      199
"Line.L24",   2,    3608.84,        0,        0,    3600.13,    99.76,    3592.76,    99.55,    10778.3,      199
"Line.L25",   1,          0,        0,        0,          0,        0,          0,        0,    9.48852,        0
"Line.L25",   2,          0,        0,        0,          0,        0,          0,        0,    9.48852,        0
"Line.L26",   1,    3605.86,     1202,      601,    3600.92,    99.86,    3594.95,     99.7,    10784.9,    199.3
"Line.L26",   2,    3605.86,        0,        0,    3600.92,    99.86,    3594.95,     99.7,    10784.9,    199.3
"Line.L27",   1,          0,        0,        0,          0,        0,          0,        0,    6.96443,        0
"Line.L27",   2,          0,        0,        0,          0,        0,          0,        0,    6.96443,        0
"Line.L28",   1,          0,        0,        0,          0,        0,          0,        0,    6.65695,        0
"Line.L28",   2,          0,        0,        0,          0,        0,          0,        0,    6.65695,        0
"Line.L29",   1,          0,        0,        0,          0,        0,          0,        0,    6.96684,        0
"Line.L29",   2,          0,        0,        0,          0,        0,          0,        0,    6.96684,        0
"Line.L30",   1,     3604.4,     1201,    600.7,    3599.77,    99.87,    3597.56,    99.81,    10792.7,    199.6
"Line.L30",   2,     3604.4,        0,        0,    3599.77,    99.87,    3597.56,    99.81,    10792.7,    199.6
"Line.L31",   1,     2.5426,   0.8475,   0.4238,    2.54316,      100,    2.54588,    100.1,    7.63765,    199.8
"Line.L31",   2,    2.54433,        0,        0,    2.54453,      100,    2.54552,      100,    7.63765,    199.9
"Line.L32",   1, 0.00145661, 0.0004855, 0.0002428, 0.000805413,    55.29, 0.000651447,    44.72, 0.00195434,      100
"Line.L32",   2, 1.4416E-011,        0,        0, 4.78144E-011,    331.7, 2.40094E-011,    166.5, 0.00195434,    62.52
"Line.L33",   1,          0,        0,        0,          0,        0,          0,        0,    3.32828,        0
"Line.L33",   2,          0,        0,        0,          0,        0,          0,        0,    3.32828,        0
"Line.L34",   1,          0,        0,        0,          0,        0,          0,        0,    10.0226,        0
"Line.L34",   2,          0,        0,        0,          0,        0,          0,        0,    10.0226,        0
"Line.L35",   1,          0,        0,        0,          0,        0,          0,        0,    6.24318,        0
"Line.L35",   2,          0,        0,        0,          0,        0,          0,        0,    6.24318,        0
"Line.L36",   1,      31.89,    10.63,    5.315,    4.05574,    12.72,    12.4069,    38.91,    37.2206,    51.39
"Line.L36",   2,    31.8912,        0,        0,    4.05589,    12.72,    12.4072,     38.9,    37.2206,    51.39
"Line.L37",   1,          0,        0,        0,          0,        0,          0,        0,    7.70211,        0
"Line.L37",   2,          0,        0,        0,          0,        0,          0,        0,    7.70211,        0
"Line.L38",   1,          0,        0,        0,          0,        0,          0,        0,    2.71191,        0
"Line.L38",   2,          0,        0,        0,          0,        0,          0,        0,    2.71191,        0
"Line.L39",   1,          0,        0,        0,          0,        0,          0,        0,    1.35588,        0
"Line.L39",   2,          0,        0,        0,          0,        0,          0,        0,    1.35588,        0
"Line.L40",   1,          0,        0,        0,          0,        0,          0,        0,    3.51062,        0
"Line.L40",   2,          0,        0,        0,          0,        0,          0,        0,    3.51062,        0
"Line.L41",   1,    30.7255,    10.24,    5.121,    4.13425,    13.46,    11.8399,    38.53,    35.5197,    49.58
"Line.L41",   2,    30.7267,        0,        0,    4.13438,    13.46,    11.8403,    38.53,    35.5197,    49.58
"Line.L42",   1,          0,        0,        0,          0,        0,          0,        0,    2.71241,        0
"Line.L42",   2,          0,        0,        0,          0,        0,          0,        0,    2.71241,        0
"Line.L43",   1,    28.7111,     9.57,    4.785,    4.18374,    14.57,    11.7997,     41.1,    35.3992,    55.24
"Line.L43",   2,    28.7121,        0,        0,    4.18386,    14.57,       11.8,     41.1,    35.3992,    55.24
"Line.L44",   1,          0,        0,        0,          0,        0,          0,        0,    7.15761,        0
"Line.L44",   2,          0,        0,        0,          0,        0,          0,        0,    7.15761,        0
"Line.L45",   1,    26.4414,    8.814,    4.407,    3.48641,    13.19,    10.0692,    38.08,    30.2075,    51.28
"Line.L45",   2,    26.4427,        0,        0,    3.48655,    13.19,    10.0694,    38.08,    30.2075,    51.28
"Line.L46",   1,          0,        0,        0,          0,        0,          0,        0,    3.49125,        0
"Line.L46",   2,          0,        0,        0,          0,        0,          0,        0,    3.49125,        0
"Line.L47",   1,    11.4666,    3.822,    1.911,    1.52534,     13.3,    4.72171,    41.18,    14.1651,    55.15
"Line.L47",   2,    11.4674,        0,        0,    1.52522,     13.3,    4.72177,    41.18,    14.1651,    55.15
"Line.L48",   1,    9.48455,    3.162,    1.581,    1.38986,    14.65,    3.31227,    34.92,    9.93682,    45.56
"Line.L48",   2,    9.48575,        0,        0,    1.38995,    14.65,    3.31212,    34.92,    9.93682,    45.55
"Line.L49",   1,    3.44482,    1.148,   0.5741,    1.60178,     46.5,    2.45514,    71.27,    7.36542,    100.2
"Line.L49",   2,    3.44596,        0,        0,    1.60193,    46.49,    2.45491,    71.24,    7.36542,    100.3
"Line.L50",   1,    1.16189,   0.3873,   0.1936,    1.16576,    100.3,    1.16258,    100.1,    3.48774,      199
"Line.L50",   2,     1.1626,        0,        0,    1.16518,    100.2,    1.16306,      100,    3.48774,    199.3
"Line.L51",   1, 0.00396771, 0.001323, 0.0006613, 0.00117873,    29.71, 0.00126747,    31.94,  0.0038024,    31.76
"Line.L51",   2, 1.201E-007,        0,        0, 7.45593E-008,    62.08, 8.73609E-008,    72.74,  0.0038024,    130.4
"Line.L52",   1,     94.124,    23.53,    15.69,    5.30688,    5.638,    9.10486,    9.673,    27.3146,    11.73
"Line.L52",   2,    94.1249,        0,        0,    5.30699,    5.638,    9.10505,    9.673,    27.3146,    11.73
"Line.L53",   1,    91.9415,    22.99,    15.32,    3.32588,    3.617,    7.47297,    8.128,    22.4189,    7.443
"Line.L53",   2,     91.942,        0,        0,    3.32594,    3.617,    7.47306,    8.128,    22.4189,    7.443
"Line.L54",   1,    1.99458,   0.6649,   0.3324,    1.17015,    58.67,   0.966226,    48.44,    2.89868,    99.73
"Line.L54",   2,    1.99555,        0,        0,    1.17027,    58.64,   0.966489,    48.43,    2.89868,    99.87
"Line.L55",   1,    89.9602,    29.99,    14.99,    2.16078,    2.402,    7.49806,    8.335,    22.4942,    7.991
"Line.L55",   2,    89.9619,        0,        0,    2.16047,    2.402,    7.49815,    8.335,    22.4942,    7.991
"Line.L56",   1,   0.780703,   0.2602,   0.1301,   0.781984,    100.2,   0.782069,    100.2,    2.34621,    199.3
"Line.L56",   2,   0.781873,        0,        0,   0.781873,      100,   0.781873,      100,    2.34621,      200
"Line.L57",   1,          0,        0,        0,          0,        0,          0,        0,     4.6111,        0
"Line.L57",   2,          0,        0,        0,          0,        0,          0,        0,     4.6111,        0
"Line.L58",   1,    88.4257,    29.48,    14.74,    2.44402,    2.764,     9.0336,    10.22,    27.1008,    11.59
"Line.L58",   2,    88.4292,        0,        0,    2.44311,    2.763,     9.0338,    10.22,    27.1008,    11.59
"Line.L59",   1,          0,        0,        0,          0,        0,          0,        0,    2.34316,        0
"Line.L59",   2,          0,        0,        0,          0,        0,          0,        0,    2.34316,        0
"Line.L60",   1, 0.00527077, 0.001757, 0.0008785, 0.000677341,    12.85, 0.00061742,    11.71, 0.00185226,    16.53
"Line.L60",   2, 4.6852E-006,        0,        0, 1.83932E-007,    3.926, 6.84704E-007,    14.61, 0.00185226,     18.6
"Line.L61",   1,    19.6357,    6.545,    3.273,      5.504,    28.03,    4.24989,    21.64,    12.7497,    48.98
"Line.L61",   2,    19.6477,        0,        0,    5.50562,    28.02,     4.2473,    21.62,    12.7497,    48.94
"Line.L62",   1,    17.1997,    5.733,    2.867,    3.17805,    18.48,    1.80411,    10.49,    5.41234,    27.57
"Line.L62",   2,     17.208,        0,        0,    3.17912,    18.47,    1.80208,    10.47,    5.41234,    27.54
"Line.L63",   1,    15.0492,    5.016,    2.508,    4.44338,    29.53,    3.34505,    22.23,    10.0351,    44.66
"Line.L63",   2,    15.0666,        0,        0,    4.44566,    29.51,    3.33789,    22.15,    10.0351,    44.57
"Line.L64",   1,    12.2986,      4.1,     2.05,    5.94699,    48.35,    4.11772,    33.48,    12.3532,    76.82
"Line.L64",   2,    12.3208,        0,        0,    5.94962,    48.29,     4.1135,    33.39,    12.3532,    76.62
"Line.L65",   1,    4.09437,    1.365,   0.6824,    4.10814,    100.3,     4.1135,    100.5,    12.3405,    198.6
"Line.L65",   2,    4.11027,        0,        0,    4.11027,      100,    4.11027,      100,    12.3405,      200
"Line.L66",   1,          0,        0,        0,          0,        0,          0,        0,    17.8684,        0
"Line.L66",   2,          0,        0,        0,          0,        0,          0,        0,    17.8684,        0
"Line.L67",   1,    43.6199,    14.54,     7.27,    2.53569,    5.813,    4.31404,     9.89,    12.9421,    10.97
"Line.L67",   2,    43.6211,        0,        0,    2.53597,    5.814,     4.3139,    9.889,    12.9421,    10.97
"Line.L68",   1,    21.4602,    7.153,    3.577,    2.21928,    10.34,    4.88699,    22.77,     14.661,    27.58
"Line.L68",   2,    21.4612,        0,        0,    2.21905,    10.34,     4.8871,    22.77,     14.661,    27.58
"Line.L69",   1,          0,        0,        0,          0,        0,          0,        0,    14.8896,        0
"Line.L69",   2,          0,        0,        0,          0,        0,          0,        0,    14.8896,        0
"Line.L70",   1,          0,        0,        0,          0,        0,          0,        0,    8.93293,        0
"Line.L70",   2,          0,        0,        0,          0,        0,          0,        0,    8.93293,        0
"Line.L71",   1,          0,        0,        0,          0,        0,          0,        0,    5.95551,        0
"Line.L71",   2,          0,        0,        0,          0,        0,          0,        0,    5.95551,        0
"Line.L72",   1,          0,        0,        0,          0,        0,          0,        0,    18.5997,        0
"Line.L72",   2,          0,        0,        0,          0,        0,          0,        0,    18.5997,        0
"Line.L73",   1,    37.4315,    12.48,    6.239,    6.03059,    16.11,    1.90012,    5.076,    5.70035,    20.23
"Line.L73",   2,    37.4324,        0,        0,    6.03065,    16.11,    1.90023,    5.076,    5.70035,    20.23
"Line.L74",   1,          0,        0,        0,          0,        0,          0,        0,    12.6034,        0
"Line.L74",   2,          0,        0,        0,          0,        0,          0,        0,    12.6034,        0
"Line.L75",   1,          0,        0,        0,          0,        0,          0,        0,    5.99404,        0
"Line.L75",   2,          0,        0,        0,          0,        0,          0,        0,    5.99404,        0
"Line.L76",   1,    11.5788,     3.86,     1.93,   0.346306,    2.991,    1.44308,    12.46,    4.32923,    10.45
"Line.L76",   2,    11.5804,        0,        0,   0.345978,    2.988,    1.44317,    12.46,    4.32923,    10.45
"Line.L77",   1,    11.9315,    3.977,    1.989,      4.131,    34.62,    2.85713,    23.95,    8.57139,     50.6
"Line.L77",   2,    11.9342,        0,        0,    4.13139,    34.62,    2.85732,    23.94,    8.57139,    50.59
"Line.L78",   1,    9.84209,    3.281,     1.64,    1.46719,    14.91,    3.17975,    32.31,    9.53926,     47.4
"Line.L78",   2,    9.84249,        0,        0,    1.46719,    14.91,    3.17978,    32.31,    9.53926,    47.39
"Line.L79",   1,    2.18868,   0.7296,   0.3648,    2.18961,      100,    2.18924,      100,    6.56772,    199.8
"Line.L79",   2,    2.18936,        0,        0,    2.18936,      100,    2.18936,      100,    6.56772,      200
"Line.L80",   1,    7.67442,    2.558,    1.279,    1.92784,    25.12,    2.46765,    32.15,    7.40296,    55.27
"Line.L80",   2,    7.67647,        0,        0,    1.92842,    25.12,    2.46757,    32.14,    7.40296,    55.27
"Line.L81",   1,    5.93882,     1.98,   0.9898,    2.98079,    50.19,    3.94018,    66.35,    11.8205,    100.3
"Line.L81",   2,    5.93958,        0,        0,    2.98095,    50.19,    3.94017,    66.34,    11.8205,    100.4
"Line.L82",   1,    2.96351,   0.9878,   0.4939,    1.47854,    49.89,    1.96149,    66.19,    5.88448,    99.88
"Line.L82",   2,    2.96443,        0,        0,    1.47837,    49.87,    1.96159,    66.17,    5.88448,    99.94
"Line.L83",   1,          0,        0,        0,          0,        0,          0,        0,    8.98791,        0
"Line.L83",   2,          0,        0,        0,          0,        0,          0,        0,    8.98791,        0
"Line.L84",   1,   0.998094,   0.3327,   0.1663,   0.999041,    100.1,    0.99941,    100.1,    2.99823,    199.6
"Line.L84",   2,   0.999341,        0,        0,   0.999341,      100,   0.999341,      100,    2.99823,      200
