Element, Terminal,  I1, %Normal, %Emergency, I2, %I2/I1, I0, %I0/I1, Iresidual, %NEMA
"Vsource.SOURCE",   1,    229.531,        0,        0,    24.7742,    10.79,    17.0081,     7.41,    51.0243,    10.23
"Vsource.SOURCE",   2,    229.531,        0,        0,    24.7742,    10.79,    17.0081,     7.41,    51.0243,    10.23
"Transformer.REG1A",   1,    229.531,    30.05,    22.03,    24.7742,    10.79,    17.0081,     7.41, 7.99884E-009,    10.23
"Transformer.REG1A",   2,    226.698,        0,        0,    24.4684,    10.79,    16.7981,     7.41, 7.99884E-009,    10.23
"Line.L115",   1,    226.698,    37.78,    37.78,    24.4684,    10.79,    16.7981,     7.41,    50.3944,    10.23
"Line.L115",   2,    226.699,        0,        0,    24.4687,    10.79,    16.7982,     7.41,    50.3944,    10.23
"Line.L1",   1,          0,        0,        0,          0,        0,          0,        0,    3.06628,        0
"Line.L1",   2,          0,        0,        0,          0,        0,          0,        0,    3.06628,        0
"Line.L2",   1,          0,        0,        0,          0,        0,          0,        0,    15.5253,        0
"Line.L2",   2,          0,        0,        0,          0,        0,          0,        0,    15.5253,        0
"Line.L3",   1,    231.514,    38.59,    38.59,    24.6188,    10.63,    16.7009,    7.214,    50.1026,    9.531
"Line.L3",   2,    231.515,        0,        0,    24.6191,    10.63,    16.7009,    7.214,    50.1026,     9.53
"Line.L4",   1,          0,        0,        0,          0,        0,          0,        0,    6.13746,        0
"Line.L4",   2,          0,        0,        0,          0,        0,          0,        0,    6.13746,        0
"Line.L5",   1,          0,        0,        0,          0,        0,          0,        0,    9.38851,        0
"Line.L5",   2,          0,        0,        0,          0,        0,          0,        0,    9.38851,        0
"Line.L6",   1,          0,        0,        0,          0,        0,          0,        0,    6.28377,        0
"Line.L6",   2,          0,        0,        0,          0,        0,          0,        0,    6.28377,        0
"Line.L7",   1,    232.126,    38.69,    38.69,    23.6115,    10.17,    15.6995,    6.763,    47.0985,      9.1
"Line.L7",   2,    232.127,        0,        0,    23.6116,    10.17,    15.6995,    6.763,    47.0985,      9.1
"Line.L8",   1,          0,        0,        0,          0,        0,          0,        0,    3.06512,        0
"Line.L8",   2,          0,        0,        0,          0,        0,          0,        0,    3.06512,        0
"Line.L9",   1,          0,        0,        0,          0,        0,          0,        0,    15.6224,        0
"Line.L9",   2,          0,        0,        0,          0,        0,          0,        0,    15.6224,        0
"Line.L10",   1,    235.917,    39.32,    39.32,    19.2199,    8.147,    11.4406,    4.849,    34.3219,    7.912
"Line.L10",   2,    235.918,        0,        0,    19.2201,    8.147,    11.4407,    4.849,    34.3219,    7.912
"Line.L11",   1,          0,        0,        0,          0,        0,          0,        0,     9.4258,        0
"Line.L11",   2,          0,        0,        0,          0,        0,          0,        0,     9.4258,        0
"Line.L12",   1,          0,        0,        0,          0,        0,          0,        0,    15.4912,        0
"Line.L12",   2,          0,        0,        0,          0,        0,          0,        0,    15.4912,        0
"Line.L13",   1,    134.988,       45,     22.5,    9.44355,    6.996,    7.49752,    5.554,    22.4926,    9.687
"Line.L13",   2,    134.991,        0,        0,    9.44333,    6.996,    7.49735,    5.554,    22.4926,    9.686
"Line.L14",   1,          0,        0,        0,          0,        0,          0,        0,    6.32204,        0
"Line.L14",   2,          0,        0,        0,          0,        0,          0,        0,    6.32204,        0
"Line.L15",   1,          0,        0,        0,          0,        0,          0,        0,    3.10495,        0
"Line.L15",   2,          0,        0,        0,          0,        0,          0,        0,    3.10495,        0
"Line.L16",   1,          0,        0,        0,          0,        0,          0,        0,    6.13844,        0
"Line.L16",   2,          0,        0,        0,          0,        0,          0,        0,    6.13844,        0
"Line.L17",   1,          0,        0,        0,          0,        0,          0,        0,    3.06859,        0
"Line.L17",   2,          0,        0,        0,          0,        0,          0,        0,    3.06859,        0
"Line.L18",   1,          0,        0,        0,          0,        0,          0,        0,    12.3491,        0
"Line.L18",   2,          0,        0,        0,          0,        0,          0,        0,    12.3491,        0
"Line.L19",   1,    14.4724,    4.824,    2.412,    4.10758,    28.38,    4.07977,    28.19,    12.2393,    56.56
"Line.L19",   2,    14.4737,        0,        0,    4.10784,    28.38,    4.07976,    28.19,    12.2393,    56.55
"Line.L20",   1,          0,        0,        0,          0,        0,          0,        0,    6.21039,        0
"Line.L20",   2,          0,        0,        0,          0,        0,          0,        0,    6.21039,        0
"Line.L21",   1,          0,        0,        0,          0,        0,          0,        0,    6.29379,        0
"Line.L21",   2,          0,        0,        0,          0,        0,          0,        0,    6.29379,        0
"Line.L22",   1,    12.3758,    4.125,    2.063,     6.2054,    50.14,    6.17727,    49.91,    18.5318,    99.89
"Line.L22",   2,    12.3768,        0,        0,    6.20562,    50.14,    6.17726,    49.91,    18.5318,    99.91
"Line.L23",   1,          0,        0,        0,          0,        0,          0,        0,    6.13529,        0
"Line.L23",   2,          0,        0,        0,          0,        0,          0,        0,    6.13529,        0
"Line.L24",   1,    10.3317,    3.444,    1.722,    5.50639,     53.3,     5.4849,    53.09,    16.4547,    99.89
"Line.L24",   2,    10.3329,        0,        0,    5.50656,    53.29,    5.48486,    53.08,    16.4547,    99.91
"Line.L25",   1,          0,        0,        0,          0,        0,          0,        0,    6.13858,        0
"Line.L25",   2,          0,        0,        0,          0,        0,          0,        0,    6.13858,        0
"Line.L26",   1,    6.20619,    2.069,    1.034,    3.61198,     58.2,    3.60195,    58.04,    10.8059,    101.1
"Line.L26",   2,    6.20705,        0,        0,    3.61207,    58.19,    3.60192,    58.03,    10.8059,    101.1
"Line.L27",   1,          0,        0,        0,          0,        0,          0,        0,    6.20834,        0
"Line.L27",   2,          0,        0,        0,          0,        0,          0,        0,    6.20834,        0
"Line.L28",   1,          0,        0,        0,          0,        0,          0,        0,    6.09772,        0
"Line.L28",   2,          0,        0,        0,          0,        0,          0,        0,    6.09772,        0
"Line.L29",   1,          0,        0,        0,          0,        0,          0,        0,     6.2099,        0
"Line.L29",   2,          0,        0,        0,          0,        0,          0,        0,     6.2099,        0
"Line.L30",   1,    4.13662,    1.379,   0.6894,    2.07449,    50.15,     2.0659,    49.94,    6.19769,    99.82
"Line.L30",   2,     4.1379,        0,        0,    2.07476,    50.14,    2.06588,    49.93,    6.19769,    99.88
"Line.L31",   1,    2.04343,   0.6811,   0.3406,    2.04519,    100.1,    2.04567,    100.1,    6.13701,    199.5
"Line.L31",   2,    2.04492,        0,        0,    2.04556,      100,    2.04573,      100,    6.13701,    199.8
"Line.L32",   1, 0.00190987, 0.0006366, 0.0003183, 0.000227817,    11.93, 4.62139E-005,     2.42, 0.000138642,    8.721
"Line.L32",   2, 2.47335E-011,        0,        0, 2.47335E-011,      100, 6.85984E-012,    27.74, 0.000138642,    32.46
"Line.L33",   1,          0,        0,        0,          0,        0,          0,        0,    3.04882,        0
"Line.L33",   2,          0,        0,        0,          0,        0,          0,        0,    3.04882,        0
"Line.L34",   1,          0,        0,        0,          0,        0,          0,        0,    9.20676,        0
"Line.L34",   2,          0,        0,        0,          0,        0,          0,        0,    9.20676,        0
"Line.L35",   1,          0,        0,        0,          0,        0,          0,        0,     6.2332,        0
"Line.L35",   2,          0,        0,        0,          0,        0,          0,        0,     6.2332,        0
"Line.L36",   1,    153.736,    51.25,    25.62,    1.42774,   0.9287,   0.909418,   0.5915,    2.72825,   0.8405
"Line.L36",   2,    153.737,        0,        0,    1.42801,   0.9289,   0.909389,   0.5915,    2.72825,   0.8405
"Line.L37",   1,          0,        0,        0,          0,        0,          0,        0,    6.28431,        0
"Line.L37",   2,          0,        0,        0,          0,        0,          0,        0,    6.28431,        0
"Line.L38",   1,          0,        0,        0,          0,        0,          0,        0,    6.16736,        0
"Line.L38",   2,          0,        0,        0,          0,        0,          0,        0,    6.16736,        0
"Line.L39",   1,          0,        0,        0,          0,        0,          0,        0,    3.06241,        0
"Line.L39",   2,          0,        0,        0,          0,        0,          0,        0,    3.06241,        0
"Line.L40",   1,          0,        0,        0,          0,        0,          0,        0,    3.06539,        0
"Line.L40",   2,          0,        0,        0,          0,        0,          0,        0,    3.06539,        0
"Line.L41",   1,    154.548,    51.52,    25.76,    2.42157,    1.567,    1.89863,    1.229,    5.69589,    1.898
"Line.L41",   2,    154.548,        0,        0,    2.42182,    1.567,    1.89861,    1.228,    5.69589,    1.898
"Line.L42",   1,          0,        0,        0,          0,        0,          0,        0,    6.29739,        0
"Line.L42",   2,          0,        0,        0,          0,        0,          0,        0,    6.29739,        0
"Line.L43",   1,    157.038,    52.35,    26.17,    1.59294,    1.014,   0.680993,   0.4336,    2.04298,    1.185
"Line.L43",   2,    157.039,        0,        0,    1.59316,    1.014,   0.681028,   0.4337,    2.04298,    1.185
"Line.L44",   1,          0,        0,        0,          0,        0,          0,        0,    6.17086,        0
"Line.L44",   2,          0,        0,        0,          0,        0,          0,        0,    6.17086,        0
"Line.L45",   1,    158.692,     52.9,    26.45,   0.465262,   0.2932,    1.37742,    0.868,    4.13227,   0.9099
"Line.L45",   2,    158.692,        0,        0,   0.465006,    0.293,    1.37738,    0.868,    4.13227,   0.9096
"Line.L46",   1,          0,        0,        0,          0,        0,          0,        0,    3.06576,        0
"Line.L46",   2,          0,        0,        0,          0,        0,          0,        0,    3.06576,        0
"Line.L47",   1,    12.1113,    4.037,    2.019, 0.00364462,  0.03009,  0.0130142,   0.1075,  0.0390425,  0.07667
"Line.L47",   2,     12.112,        0,        0, 0.00333644,  0.02755,  0.0131727,   0.1088,  0.0390425,  0.08046
"Line.L48",   1,    171.918,    57.31,    28.65,   0.468993,   0.2728,    1.36557,   0.7943,    4.09671,   0.8767
"Line.L48",   2,    171.918,        0,        0,   0.469559,   0.2731,    1.36567,   0.7944,    4.09671,    0.877
"Line.L49",   1,    177.946,    59.32,    29.66,    1.77164,   0.9956,    1.76841,   0.9938,    5.30524,    1.491
"Line.L49",   2,    177.946,        0,        0,    1.77132,   0.9954,    1.76815,   0.9936,    5.30524,     1.49
"Line.L50",   1,    179.714,     59.9,    29.95,    1.02237,   0.5689,    1.02108,   0.5682,    3.06323,   0.9842
"Line.L50",   2,    179.714,        0,        0,    1.02183,   0.5686,    1.02097,   0.5681,    3.06323,   0.9839
"Line.L51",   1, 0.00424723, 0.001416, 0.0007079, 0.00125395,    29.52, 0.000574817,    13.53, 0.00172445,    15.69
"Line.L51",   2, 1.08736E-007,        0,        0, 6.01635E-008,    55.33, 6.00614E-008,    55.24, 0.00172445,    110.4
"Line.L52",   1,     107.21,     26.8,    17.87,    9.81756,    9.157,    3.91869,    3.655,    11.7561,    6.141
"Line.L52",   2,    107.211,        0,        0,    9.81775,    9.157,    3.91872,    3.655,    11.7561,    6.141
"Line.L53",   1,    108.303,    27.08,    18.05,    7.80698,    7.208,    2.04909,    1.892,    6.14726,     5.26
"Line.L53",   2,    108.303,        0,        0,     7.8071,    7.209,    2.04909,    1.892,    6.14726,     5.26
"Line.L54",   1,    2.06684,   0.6889,   0.3445,    1.03372,    50.01,    1.03546,     50.1,    3.10638,    99.77
"Line.L54",   2,    2.06801,        0,        0,    1.03397,       50,    1.03545,    50.07,    3.10638,    99.88
"Line.L55",   1,    96.4765,    32.16,    16.08,     7.5311,    7.806,    1.19334,    1.237,    3.58001,    8.511
"Line.L55",   2,    96.4781,        0,        0,    7.53072,    7.806,    1.19336,    1.237,    3.58001,    8.511
"Line.L56",   1,    1.02061,   0.3402,   0.1701,    1.02182,    100.1,    1.02184,    100.1,    3.06552,    199.5
"Line.L56",   2,    1.02178,        0,        0,    1.02178,      100,    1.02178,      100,    3.06552,      200
"Line.L57",   1,          0,        0,        0,          0,        0,          0,        0,    6.17152,        0
"Line.L57",   2,          0,        0,        0,          0,        0,          0,        0,    6.17152,        0
"Line.L58",   1,    94.4211,    31.47,    15.74,    9.19278,    9.736,    2.67286,    2.831,    8.01859,    10.87
"Line.L58",   2,    94.4244,        0,        0,    9.19194,    9.735,    2.67279,    2.831,    8.01859,    10.87
"Line.L59",   1,          0,        0,        0,          0,        0,          0,        0,    3.06657,        0
"Line.L59",   2,          0,        0,        0,          0,        0,          0,        0,    3.06657,        0
"Line.L60",   1, 0.00523786, 0.001746, 0.000873, 0.000624381,    11.92, 0.000123146,    2.351, 0.000369439,     8.77
"Line.L60",   2, 4.68074E-006,        0,        0, 1.34263E-007,    2.868, 1.33419E-007,     2.85, 0.000369439,  0.06311
"Line.L61",   1,    19.6735,    6.558,    3.279,    4.30566,    21.89,    3.26964,    16.62,    9.80892,    35.74
"Line.L61",   2,    19.6848,        0,        0,    4.30566,    21.87,    3.26966,    16.61,    9.80892,    35.71
"Line.L62",   1,    17.5958,    5.865,    2.933,    2.21448,    12.59,    1.76764,    10.05,    5.30293,    16.28
"Line.L62",   2,    17.6038,        0,        0,    2.21448,    12.58,    1.76766,    10.04,    5.30293,    16.26
"Line.L63",   1,     15.557,    5.186,    2.593,    3.65617,     23.5,    3.81479,    24.52,    11.4444,    41.78
"Line.L63",   2,    15.5732,        0,        0,    3.65618,    23.48,    3.81482,     24.5,    11.4444,     41.7
"Line.L64",   1,    11.7623,    3.921,     1.96,    5.32871,     45.3,    3.79575,    32.27,    11.3873,    72.73
"Line.L64",   2,    11.7832,        0,        0,    5.32871,    45.22,    3.79577,    32.21,    11.3873,    72.54
"Line.L65",   1,    3.78317,    1.261,   0.6305,    3.79578,    100.3,    3.79577,    100.3,    11.3873,    198.4
"Line.L65",   2,    3.79578,        0,        0,    3.79578,      100,    3.79578,      100,    11.3873,      200
"Line.L66",   1,          0,        0,        0,          0,        0,          0,        0,     18.233,        0
"Line.L66",   2,          0,        0,        0,          0,        0,          0,        0,     18.233,        0
"Line.L67",   1,    44.5181,    14.84,     7.42,   0.546895,    1.228,    4.98879,    11.21,    14.9664,    10.56
"Line.L67",   2,    44.5193,        0,        0,    0.54692,    1.229,    4.98879,    11.21,    14.9664,    10.56
"Line.L68",   1,    22.5134,    7.504,    3.752,     2.7587,    12.25,     2.7344,    12.15,     8.2032,     22.9
"Line.L68",   2,    22.5145,        0,        0,    2.75843,    12.25,    2.73439,    12.15,     8.2032,     22.9
"Line.L69",   1,          0,        0,        0,          0,        0,          0,        0,     15.195,        0
"Line.L69",   2,          0,        0,        0,          0,        0,          0,        0,     15.195,        0
"Line.L70",   1,          0,        0,        0,          0,        0,          0,        0,    9.11749,        0
"Line.L70",   2,          0,        0,        0,          0,        0,          0,        0,    9.11749,        0
"Line.L71",   1,          0,        0,        0,          0,        0,          0,        0,    6.07883,        0
"Line.L71",   2,          0,        0,        0,          0,        0,          0,        0,    6.07883,        0
"Line.L72",   1,          0,        0,        0,          0,        0,          0,        0,    18.5348,        0
"Line.L72",   2,          0,        0,        0,          0,        0,          0,        0,    18.5348,        0
"Line.L73",   1,    38.3412,    12.78,     6.39,     6.7246,    17.54,    6.65423,    17.36,    19.9627,    29.08
"Line.L73",   2,    38.3421,        0,        0,    6.72463,    17.54,    6.65427,    17.35,    19.9627,    29.08
"Line.L74",   1,          0,        0,        0,          0,        0,          0,        0,    12.4227,        0
"Line.L74",   2,          0,        0,        0,          0,        0,          0,        0,    12.4227,        0
"Line.L75",   1,          0,        0,        0,          0,        0,          0,        0,     6.1136,        0
"Line.L75",   2,          0,        0,        0,          0,        0,          0,        0,     6.1136,        0
"Line.L76",   1,    12.2812,    4.094,    2.047,  0.0738696,   0.6015,  0.0653851,   0.5324,   0.196155,    1.127
"Line.L76",   2,    12.2829,        0,        0,   0.073514,   0.5985,   0.065299,   0.5316,   0.196155,    1.123
"Line.L77",   1,    12.3714,    4.124,    2.062,    4.66121,    37.68,    6.66752,    53.89,    20.0026,    58.64
"Line.L77",   2,    12.3733,        0,        0,     4.6614,    37.67,    6.66766,    53.89,    20.0026,    58.66
"Line.L78",   1,     10.247,    3.416,    1.708,    2.08176,    20.32,    2.06525,    20.15,    6.19575,    40.45
"Line.L78",   2,    10.2474,        0,        0,    2.08176,    20.32,    2.06523,    20.15,    6.19575,    40.45
"Line.L79",   1,    2.11475,   0.7049,   0.3525,    2.11594,    100.1,    2.11576,      100,    6.34729,    199.8
"Line.L79",   2,    2.11572,        0,        0,    2.11572,      100,    2.11572,      100,    6.34729,      200
"Line.L80",   1,    8.13264,    2.711,    1.355,    2.04579,    25.16,    2.04179,    25.11,    6.12538,    50.26
"Line.L80",   2,    8.13467,        0,        0,    2.04627,    25.15,    2.04182,     25.1,    6.12538,    50.25
"Line.L81",   1,    6.09864,    2.033,    1.016,    3.53391,    57.95,    3.52464,    57.79,    10.5739,    100.3
"Line.L81",   2,    6.09939,        0,        0,    3.53402,    57.94,    3.52463,    57.79,    10.5739,    100.3
"Line.L82",   1,    3.04281,    1.014,   0.5071,    1.75692,    57.74,    1.75277,     57.6,     5.2583,    99.86
"Line.L82",   2,    3.04389,        0,        0,    1.75679,    57.72,    1.75271,    57.58,     5.2583,    99.93
"Line.L83",   1,          0,        0,        0,          0,        0,          0,        0,    9.16972,        0
"Line.L83",   2,          0,        0,        0,          0,        0,          0,        0,    9.16972,        0
"Line.L84",   1,     1.0178,   0.3393,   0.1696,    1.01862,    100.1,    1.01886,    100.1,    3.05658,    199.5
"Line.L84",   2,    1.01887,        0,        0,    1.01887,      100,    1.01887,      100,    3.05658,      200
