Element, Terminal,  I1, %Normal, %Emergency, I2, %I2/I1, I0, %I0/I1, Iresidual, %NEMA
"Vsource.SOURCE",   1,    16958.3,        0,        0,     1071.3,    6.317,    136.958,   0.8076,    410.875,    5.314
"Vsource.SOURCE",   2,    16958.3,        0,        0,     1071.3,    6.317,    136.958,   0.8076,    410.875,    5.314
"Transformer.REG1A",   1,    16958.3,     2220,     1628,     1071.3,    6.317,    136.958,   0.8076, 1.62981E-009,    5.314
"Transformer.REG1A",   2,    15416.6,        0,        0,    973.907,    6.317,    124.508,   0.8076, 1.62981E-009,    5.314
"Line.L115",   1,    15416.6,     2569,     2569,    973.907,    6.317,    124.508,   0.8076,    373.523,    5.314
"Line.L115",   2,    15416.6,        0,        0,    973.907,    6.317,    124.508,   0.8076,    373.523,    5.314
"Line.L1",   1,          0,        0,        0,          0,        0,          0,        0,    3.11575,        0
"Line.L1",   2,          0,        0,        0,          0,        0,          0,        0,    3.11575,        0
"Line.L2",   1,          0,        0,        0,          0,        0,          0,        0,    15.5252,        0
"Line.L2",   2,          0,        0,        0,          0,        0,          0,        0,    15.5252,        0
"Line.L3",   1,      15410,     2568,     2568,    973.754,    6.319,    124.153,   0.8057,    372.458,    5.327
"Line.L3",   2,      15410,        0,        0,    973.754,    6.319,    124.153,   0.8057,    372.458,    5.327
"Line.L4",   1,          0,        0,        0,          0,        0,          0,        0,    6.27691,        0
"Line.L4",   2,          0,        0,        0,          0,        0,          0,        0,    6.27691,        0
"Line.L5",   1,          0,        0,        0,          0,        0,          0,        0,    9.24897,        0
"Line.L5",   2,          0,        0,        0,          0,        0,          0,        0,    9.24897,        0
"Line.L6",   1,          0,        0,        0,          0,        0,          0,        0,     6.1442,        0
"Line.L6",   2,          0,        0,        0,          0,        0,          0,        0,     6.1442,        0
"Line.L7",   1,    15409.2,     2568,     2568,    972.815,    6.313,    125.144,   0.8121,    375.433,    5.317
"Line.L7",   2,    15409.2,        0,        0,    972.816,    6.313,    125.144,   0.8121,    375.433,    5.317
"Line.L8",   1,          0,        0,        0,          0,        0,          0,        0,    2.95615,        0
"Line.L8",   2,          0,        0,        0,          0,        0,          0,        0,    2.95615,        0
"Line.L9",   1,          0,        0,        0,          0,        0,          0,        0,       14.9,        0
"Line.L9",   2,          0,        0,        0,          0,        0,          0,        0,       14.9,        0
"Line.L10",   1,    15404.6,     2567,     2567,    968.929,     6.29,    129.455,   0.8404,    388.364,    5.274
"Line.L10",   2,    15404.6,        0,        0,    968.929,     6.29,    129.455,   0.8404,    388.364,    5.274
"Line.L11",   1,          0,        0,        0,          0,        0,          0,        0,    8.51723,        0
"Line.L11",   2,          0,        0,        0,          0,        0,          0,        0,    8.51723,        0
"Line.L12",   1,          0,        0,        0,          0,        0,          0,        0,    12.5498,        0
"Line.L12",   2,          0,        0,        0,          0,        0,          0,        0,    12.5498,        0
"Line.L13",   1,    15408.6,     5136,     2568,    964.756,    6.261,    132.636,   0.8608,    397.908,    5.265
"Line.L13",   2,    15408.6,        0,        0,    964.756,    6.261,    132.636,   0.8608,    397.908,    5.265
"Line.L14",   1,          0,        0,        0,          0,        0,          0,        0,    5.58706,        0
"Line.L14",   2,          0,        0,        0,          0,        0,          0,        0,    5.58706,        0
"Line.L15",   1,          0,        0,        0,          0,        0,          0,        0,    2.93122,        0
"Line.L15",   2,          0,        0,        0,          0,        0,          0,        0,    2.93122,        0
"Line.L16",   1,          0,        0,        0,          0,        0,          0,        0,    5.17322,        0
"Line.L16",   2,          0,        0,        0,          0,        0,          0,        0,    5.17322,        0
"Line.L17",   1,          0,        0,        0,          0,        0,          0,        0,    2.58645,        0
"Line.L17",   2,          0,        0,        0,          0,        0,          0,        0,    2.58645,        0
"Line.L18",   1,          0,        0,        0,          0,        0,          0,        0,    6.25517,        0
"Line.L18",   2,          0,        0,        0,          0,        0,          0,        0,    6.25517,        0
"Line.L19",   1,    15388.4,     5129,     2565,    963.183,    6.259,      134.9,   0.8766,    404.699,    5.253
"Line.L19",   2,    15388.4,        0,        0,    963.183,    6.259,      134.9,   0.8766,    404.699,    5.253
"Line.L20",   1,          0,        0,        0,          0,        0,          0,        0,    3.12625,        0
"Line.L20",   2,          0,        0,        0,          0,        0,          0,        0,    3.12625,        0
"Line.L21",   1,          0,        0,        0,          0,        0,          0,        0,    2.86383,        0
"Line.L21",   2,          0,        0,        0,          0,        0,          0,        0,    2.86383,        0
"Line.L22",   1,    15387.7,     5129,     2565,     963.91,    6.264,    134.292,   0.8727,    402.877,    5.258
"Line.L22",   2,    15387.7,        0,        0,     963.91,    6.264,    134.292,   0.8727,    402.877,    5.258
"Line.L23",   1,          0,        0,        0,          0,        0,          0,        0,    2.34943,        0
"Line.L23",   2,          0,        0,        0,          0,        0,          0,        0,    2.34943,        0
"Line.L24",   1,      15387,     5129,     2565,    964.099,    6.266,    134.065,   0.8713,    402.195,    5.262
"Line.L24",   2,      15387,        0,        0,    964.099,    6.266,    134.065,   0.8713,    402.195,    5.262
"Line.L25",   1,          0,        0,        0,          0,        0,          0,        0,    2.17876,        0
"Line.L25",   2,          0,        0,        0,          0,        0,          0,        0,    2.17876,        0
"Line.L26",   1,    15385.9,     5129,     2564,    963.628,    6.263,    134.551,   0.8745,    403.652,     5.26
"Line.L26",   2,    15385.9,        0,        0,    963.628,    6.263,    134.551,   0.8745,    403.652,     5.26
"Line.L27",   1,          0,        0,        0,          0,        0,          0,        0,    1.92399,        0
"Line.L27",   2,          0,        0,        0,          0,        0,          0,        0,    1.92399,        0
"Line.L28",   1,          0,        0,        0,          0,        0,          0,        0,    2.04809,        0
"Line.L28",   2,          0,        0,        0,          0,        0,          0,        0,    2.04809,        0
"Line.L29",   1,          0,        0,        0,          0,        0,          0,        0,    1.92452,        0
"Line.L29",   2,          0,        0,        0,          0,        0,          0,        0,    1.92452,        0
"Line.L30",   1,    15385.5,     5129,     2564,    963.192,     6.26,    135.019,   0.8776,    405.058,    5.255
"Line.L30",   2,    15385.5,        0,        0,    963.192,     6.26,    135.019,   0.8776,    405.058,    5.255
"Line.L31",   1,    15385.3,     5128,     2564,    962.909,    6.259,    135.323,   0.8796,    405.968,    5.252
"Line.L31",   2,    15385.3,        0,        0,    962.909,    6.259,    135.323,   0.8796,    405.968,    5.252
"Line.L32",   1,    15385.2,     5128,     2564,    962.938,    6.259,     135.29,   0.8794,    405.869,    5.253
"Line.L32",   2,    15385.2,        0,        0,    962.938,    6.259,     135.29,   0.8794,    405.869,    5.253
"Line.L33",   1,          0,        0,        0,          0,        0,          0,        0,    1.02399,        0
"Line.L33",   2,          0,        0,        0,          0,        0,          0,        0,    1.02399,        0
"Line.L34",   1,          0,        0,        0,          0,        0,          0,        0,    7.75945,        0
"Line.L34",   2,          0,        0,        0,          0,        0,          0,        0,    7.75945,        0
"Line.L35",   1,          0,        0,        0,          0,        0,          0,        0,    3.16104,        0
"Line.L35",   2,          0,        0,        0,          0,        0,          0,        0,    3.16104,        0
"Line.L36",   1,    18.5838,    6.195,    3.097,    1.24881,     6.72,   0.125041,   0.6728,   0.375122,    7.081
"Line.L36",   2,    18.5845,        0,        0,    1.24891,     6.72,      0.125,   0.6726,   0.375122,    7.081
"Line.L37",   1,          0,        0,        0,          0,        0,          0,        0,    3.12341,        0
"Line.L37",   2,          0,        0,        0,          0,        0,          0,        0,    3.12341,        0
"Line.L38",   1,          0,        0,        0,          0,        0,          0,        0,    3.45972,        0
"Line.L38",   2,          0,        0,        0,          0,        0,          0,        0,    3.45972,        0
"Line.L39",   1,          0,        0,        0,          0,        0,          0,        0,    1.73863,        0
"Line.L39",   2,          0,        0,        0,          0,        0,          0,        0,    1.73863,        0
"Line.L40",   1,          0,        0,        0,          0,        0,          0,        0,    1.68707,        0
"Line.L40",   2,          0,        0,        0,          0,        0,          0,        0,    1.68707,        0
"Line.L41",   1,    18.0229,    6.008,    3.004,    1.70722,    9.473,   0.619936,     3.44,    1.85981,    11.37
"Line.L41",   2,    18.0235,        0,        0,    1.70735,    9.473,    0.61992,    3.439,    1.85981,    11.37
"Line.L42",   1,          0,        0,        0,          0,        0,          0,        0,    3.40752,        0
"Line.L42",   2,          0,        0,        0,          0,        0,          0,        0,    3.40752,        0
"Line.L43",   1,    16.3825,    5.461,     2.73,   0.713639,    4.356,   0.419692,    2.562,    1.25907,    2.496
"Line.L43",   2,     16.383,        0,        0,   0.713763,    4.357,   0.419723,    2.562,    1.25907,    2.497
"Line.L44",   1,          0,        0,        0,          0,        0,          0,        0,    3.12498,        0
"Line.L44",   2,          0,        0,        0,          0,        0,          0,        0,    3.12498,        0
"Line.L45",   1,     15.359,     5.12,     2.56,    1.08204,    7.045,     0.8816,     5.74,     2.6448,    11.74
"Line.L45",   2,    15.3597,        0,        0,    1.08199,    7.044,   0.881579,     5.74,     2.6448,    11.74
"Line.L46",   1,          0,        0,        0,          0,        0,          0,        0,    1.56288,        0
"Line.L46",   2,          0,        0,        0,          0,        0,          0,        0,    1.56288,        0
"Line.L47",   1,    6.31237,    2.104,    1.052,   0.348367,    5.519,   0.124058,    1.965,   0.372173,    4.937
"Line.L47",   2,    6.31274,        0,        0,   0.348575,    5.522,   0.123993,    1.964,   0.372173,    4.941
"Line.L48",   1,     5.8777,    1.959,   0.9796,   0.568974,     9.68,   0.794583,    13.52,    2.38375,    22.55
"Line.L48",   2,    5.87828,        0,        0,   0.569311,    9.685,   0.794615,    13.52,    2.38375,    22.55
"Line.L49",   1,    1.64135,   0.5471,   0.2736,   0.917017,    55.87,    1.03409,       63,    3.10228,    104.8
"Line.L49",   2,    1.64185,        0,        0,   0.916821,    55.84,    1.03397,    62.98,    3.10228,    104.8
"Line.L50",   1,   0.519797,   0.1733,  0.08663,   0.521825,    100.4,   0.521235,    100.3,     1.5637,    198.5
"Line.L50",   2,   0.520217,        0,        0,   0.521571,    100.3,   0.521178,    100.2,     1.5637,      199
"Line.L51",   1, 0.00221788, 0.0007393, 0.0003696, 0.000697098,    31.43, 0.000258988,    11.68, 0.000776964,    21.44
"Line.L51",   2, 5.50413E-008,        0,        0, 2.86685E-008,    52.09, 2.97519E-008,    54.05, 0.000776964,    105.8
"Line.L52",   1,    93.7035,    23.43,    15.62,    5.31363,    5.671,     2.8089,    2.998,     8.4267,    7.992
"Line.L52",   2,    93.7042,        0,        0,    5.31385,    5.671,    2.80894,    2.998,     8.4267,    7.992
"Line.L53",   1,    92.1007,    23.03,    15.35,    3.89071,    4.224,    1.24326,     1.35,    3.72977,    4.646
"Line.L53",   2,    92.1012,        0,        0,    3.89085,    4.225,    1.24329,     1.35,    3.72977,    4.646
"Line.L54",   1,    1.63498,    0.545,   0.2725,   0.861494,    52.69,    0.79184,    48.43,    2.37552,    99.78
"Line.L54",   2,    1.63582,        0,        0,   0.861762,    52.68,   0.791821,    48.41,    2.37552,    99.89
"Line.L55",   1,    90.4675,    30.16,    15.08,    3.20924,    3.547,    1.47222,    1.627,    4.41665,    4.053
"Line.L55",   2,    90.4686,        0,        0,     3.2092,    3.547,     1.4722,    1.627,    4.41665,    4.052
"Line.L56",   1,   0.886228,   0.2954,   0.1477,   0.887065,    100.1,   0.887174,    100.1,    2.66152,    199.6
"Line.L56",   2,   0.887113,        0,        0,   0.887113,      100,   0.887113,      100,    2.66152,      200
"Line.L57",   1,          0,        0,        0,          0,        0,          0,        0,    5.21177,        0
"Line.L57",   2,          0,        0,        0,          0,        0,          0,        0,    5.21177,        0
"Line.L58",   1,    88.7316,    29.58,    14.79,    3.72628,      4.2,     3.2065,    3.614,    9.61951,    6.086
"Line.L58",   2,     88.734,        0,        0,    3.72584,    4.199,    3.20646,    3.614,    9.61951,    6.085
"Line.L59",   1,          0,        0,        0,          0,        0,          0,        0,    2.65851,        0
"Line.L59",   2,          0,        0,        0,          0,        0,          0,        0,    2.65851,        0
"Line.L60",   1, 0.00393153, 0.001311, 0.0006553, 0.000453213,    11.53, 0.000122817,    3.124, 0.000368451,     8.89
"Line.L60",   2, 3.51302E-006,        0,        0, 2.75643E-007,    7.846, 1.29506E-007,    3.686, 0.000368451,    4.683
"Line.L61",   1,    15.3831,    5.128,    2.564,    3.35605,    21.82,    2.60715,    16.95,    7.82145,     36.4
"Line.L61",   2,    15.3918,        0,        0,    3.35523,     21.8,     2.6071,    16.94,    7.82145,    36.37
"Line.L62",   1,    13.7987,      4.6,      2.3,    1.80641,    13.09,    1.39379,     10.1,    4.18137,    19.63
"Line.L62",   2,    13.8047,        0,        0,     1.8059,    13.08,    1.39364,     10.1,    4.18137,    19.62
"Line.L63",   1,    12.2142,    4.071,    2.036,    3.25105,    26.62,    2.98862,    24.47,    8.96585,    47.06
"Line.L63",   2,    12.2267,        0,        0,    3.25031,    26.58,    2.98829,    24.44,    8.96585,    46.98
"Line.L64",   1,    9.10582,    3.035,    1.518,    4.10454,    45.08,    3.18024,    34.93,    9.54072,    77.23
"Line.L64",   2,    9.12194,        0,        0,    4.10292,    44.98,    3.18041,    34.87,    9.54072,    77.04
"Line.L65",   1,    3.16986,    1.057,   0.5283,    3.18171,    100.4,    3.18041,    100.3,    9.54122,    198.6
"Line.L65",   2,    3.18053,        0,        0,    3.18053,      100,    3.18053,      100,    9.54122,      200
"Line.L66",   1,          0,        0,        0,          0,        0,          0,        0,    16.0565,        0
"Line.L66",   2,          0,        0,        0,          0,        0,          0,        0,    16.0565,        0
"Line.L67",   1,    40.3797,    13.46,     6.73,    2.60266,    6.445,     4.6086,    11.41,    13.8258,    16.07
"Line.L67",   2,    40.3807,        0,        0,    2.60298,    6.446,    4.60858,    11.41,    13.8258,    16.07
"Line.L68",   1,    20.2554,    6.752,    3.376,    1.26998,     6.27,     2.2775,    11.24,     6.8325,    16.06
"Line.L68",   2,    20.2562,        0,        0,    1.26983,    6.269,     2.2775,    11.24,     6.8325,    16.06
"Line.L69",   1,          0,        0,        0,          0,        0,          0,        0,    13.3796,        0
"Line.L69",   2,          0,        0,        0,          0,        0,          0,        0,    13.3796,        0
"Line.L70",   1,          0,        0,        0,          0,        0,          0,        0,    8.02683,        0
"Line.L70",   2,          0,        0,        0,          0,        0,          0,        0,    8.02683,        0
"Line.L71",   1,          0,        0,        0,          0,        0,          0,        0,    5.35132,        0
"Line.L71",   2,          0,        0,        0,          0,        0,          0,        0,    5.35132,        0
"Line.L72",   1,          0,        0,        0,          0,        0,          0,        0,    16.7364,        0
"Line.L72",   2,          0,        0,        0,          0,        0,          0,        0,    16.7364,        0
"Line.L73",   1,    34.8095,     11.6,    5.802,    6.58646,    18.92,    5.76843,    16.57,    17.3053,    30.84
"Line.L73",   2,    34.8102,        0,        0,    6.58663,    18.92,    5.76844,    16.57,    17.3053,    30.84
"Line.L74",   1,          0,        0,        0,          0,        0,          0,        0,     10.993,        0
"Line.L74",   2,          0,        0,        0,          0,        0,          0,        0,     10.993,        0
"Line.L75",   1,          0,        0,        0,          0,        0,          0,        0,     5.7409,        0
"Line.L75",   2,          0,        0,        0,          0,        0,          0,        0,     5.7409,        0
"Line.L76",   1,     11.176,    3.725,    1.863,   0.767379,    6.866,   0.307346,     2.75,   0.922039,    8.061
"Line.L76",   2,    11.1774,        0,        0,   0.767615,    6.868,   0.307393,     2.75,   0.922039,    8.065
"Line.L77",   1,    11.6529,    3.884,    1.942,    4.35711,    37.39,    5.86096,     50.3,    17.5829,    64.36
"Line.L77",   2,    11.6545,        0,        0,    4.35768,    37.39,    5.86102,    50.29,    17.5829,    64.38
"Line.L78",   1,    9.20871,     3.07,    1.535,    1.35246,    14.69,    2.03211,    22.07,    6.09634,    36.01
"Line.L78",   2,    9.20905,        0,        0,    1.35245,    14.69,    2.03211,    22.07,    6.09634,    36.01
"Line.L79",   1,    1.64468,   0.5482,   0.2741,    1.64554,    100.1,    1.64541,      100,    4.93622,    199.8
"Line.L79",   2,    1.64538,        0,        0,    1.64538,      100,    1.64538,      100,    4.93622,      200
"Line.L80",   1,    7.56763,    2.523,    1.261,    1.91948,    25.36,    2.02359,    26.74,    6.07077,    51.47
"Line.L80",   2,    7.56933,        0,        0,    1.91973,    25.36,    2.02362,    26.73,    6.07077,    51.47
"Line.L81",   1,    5.60127,    1.867,   0.9335,    3.11721,    55.65,    3.51685,    62.79,    10.5505,    104.5
"Line.L81",   2,     5.6019,        0,        0,    3.11724,    55.65,    3.51685,    62.78,    10.5505,    104.5
"Line.L82",   1,    2.73617,   0.9121,    0.456,    1.43939,    52.61,    1.65419,    60.46,    4.96257,    99.86
"Line.L82",   2,    2.73701,        0,        0,    1.43924,    52.58,    1.65416,    60.44,    4.96257,    99.93
"Line.L83",   1,          0,        0,        0,          0,        0,          0,        0,    8.60873,        0
"Line.L83",   2,          0,        0,        0,          0,        0,          0,        0,    8.60873,        0
"Line.L84",   1,   0.956263,   0.3188,   0.1594,   0.957117,    100.1,   0.957211,    100.1,    2.87163,    199.6
"Line.L84",   2,   0.957228,        0,        0,   0.957228,      100,   0.957228,      100,    2.87163,      200
