Element, Terminal,  I1, %Normal, %Emergency, I2, %I2/I1, I0, %I0/I1, Iresidual, %NEMA
"Vsource.SOURCE",   1,    16153.1,        0,        0,    874.524,    5.414,    84.0678,   0.5204,    252.203,    4.939
"Vsource.SOURCE",   2,    16153.1,        0,        0,    874.524,    5.414,    84.0678,   0.5204,    252.203,    4.939
"Transformer.REG1A",   1,    16153.1,     2114,     1551,    874.524,    5.414,    84.0678,   0.5204, 8.17978E-009,    4.939
"Transformer.REG1A",   2,    14684.7,        0,        0,    795.022,    5.414,    76.4252,   0.5204, 8.17978E-009,    4.939
"Line.L115",   1,    14684.7,     2447,     2447,    795.022,    5.414,    76.4252,   0.5204,    229.276,    4.939
"Line.L115",   2,    14684.7,        0,        0,    795.022,    5.414,    76.4253,   0.5204,    229.276,    4.939
"Line.L1",   1,          0,        0,        0,          0,        0,          0,        0,    3.11352,        0
"Line.L1",   2,          0,        0,        0,          0,        0,          0,        0,    3.11352,        0
"Line.L2",   1,          0,        0,        0,          0,        0,          0,        0,    15.5251,        0
"Line.L2",   2,          0,        0,        0,          0,        0,          0,        0,    15.5251,        0
"Line.L3",   1,    14678.1,     2446,     2446,    798.686,    5.441,    73.6407,   0.5017,    220.922,    4.969
"Line.L3",   2,    14678.1,        0,        0,    798.686,    5.441,    73.6407,   0.5017,    220.922,    4.969
"Line.L4",   1,          0,        0,        0,          0,        0,          0,        0,    6.27296,        0
"Line.L4",   2,          0,        0,        0,          0,        0,          0,        0,    6.27296,        0
"Line.L5",   1,          0,        0,        0,          0,        0,          0,        0,    9.25283,        0
"Line.L5",   2,          0,        0,        0,          0,        0,          0,        0,    9.25283,        0
"Line.L6",   1,          0,        0,        0,          0,        0,          0,        0,    6.14806,        0
"Line.L6",   2,          0,        0,        0,          0,        0,          0,        0,    6.14806,        0
"Line.L7",   1,    14677.3,     2446,     2446,    798.537,    5.441,    73.1606,   0.4985,    219.482,    4.975
"Line.L7",   2,    14677.3,        0,        0,    798.537,    5.441,    73.1606,   0.4985,    219.482,    4.975
"Line.L8",   1,          0,        0,        0,          0,        0,          0,        0,    2.96233,        0
"Line.L8",   2,          0,        0,        0,          0,        0,          0,        0,    2.96233,        0
"Line.L9",   1,          0,        0,        0,          0,        0,          0,        0,    15.5052,        0
"Line.L9",   2,          0,        0,        0,          0,        0,          0,        0,    15.5052,        0
"Line.L10",   1,    14672.5,     2445,     2445,    796.989,    5.432,    71.8853,   0.4899,    215.656,    4.994
"Line.L10",   2,    14672.5,        0,        0,    796.989,    5.432,    71.8854,   0.4899,    215.656,    4.994
"Line.L11",   1,          0,        0,        0,          0,        0,          0,        0,    8.85012,        0
"Line.L11",   2,          0,        0,        0,          0,        0,          0,        0,    8.85012,        0
"Line.L12",   1,          0,        0,        0,          0,        0,          0,        0,    12.5663,        0
"Line.L12",   2,          0,        0,        0,          0,        0,          0,        0,    12.5663,        0
"Line.L13",   1,    14591.7,     4864,     2432,    798.512,    5.472,    68.0004,    0.466,    204.001,    5.057
"Line.L13",   2,    14591.7,        0,        0,    798.511,    5.472,    68.0004,    0.466,    204.001,    5.057
"Line.L14",   1,          0,        0,        0,          0,        0,          0,        0,    5.80109,        0
"Line.L14",   2,          0,        0,        0,          0,        0,          0,        0,    5.80109,        0
"Line.L15",   1,          0,        0,        0,          0,        0,          0,        0,    3.05012,        0
"Line.L15",   2,          0,        0,        0,          0,        0,          0,        0,    3.05012,        0
"Line.L16",   1,          0,        0,        0,          0,        0,          0,        0,    5.18033,        0
"Line.L16",   2,          0,        0,        0,          0,        0,          0,        0,    5.18033,        0
"Line.L17",   1,          0,        0,        0,          0,        0,          0,        0,       2.59,        0
"Line.L17",   2,          0,        0,        0,          0,        0,          0,        0,       2.59,        0
"Line.L18",   1,          0,        0,        0,          0,        0,          0,        0,    7.25904,        0
"Line.L18",   2,          0,        0,        0,          0,        0,          0,        0,    7.25904,        0
"Line.L19",   1,    8.65101,    2.884,    1.442,    2.85045,    32.95,    2.37494,    27.45,    7.12481,     60.2
"Line.L19",   2,     8.6517,        0,        0,    2.85066,    32.95,    2.37493,    27.45,    7.12481,     60.2
"Line.L20",   1,          0,        0,        0,          0,        0,          0,        0,    3.60305,        0
"Line.L20",   2,          0,        0,        0,          0,        0,          0,        0,    3.60305,        0
"Line.L21",   1,          0,        0,        0,          0,        0,          0,        0,     3.4491,        0
"Line.L21",   2,          0,        0,        0,          0,        0,          0,        0,     3.4491,        0
"Line.L22",   1,    7.50462,    2.502,    1.251,    3.99014,    53.17,     3.5241,    46.96,    10.5723,     99.9
"Line.L22",   2,    7.50518,        0,        0,    3.99032,    53.17,    3.52409,    46.96,    10.5723,    99.92
"Line.L23",   1,          0,        0,        0,          0,        0,          0,        0,    3.39884,        0
"Line.L23",   2,          0,        0,        0,          0,        0,          0,        0,    3.39884,        0
"Line.L24",   1,     6.3731,    2.124,    1.062,    3.56645,    55.96,    3.20926,    50.36,    9.62778,     99.9
"Line.L24",   2,    6.37372,        0,        0,    3.56661,    55.96,    3.20924,    50.35,    9.62778,    99.92
"Line.L25",   1,          0,        0,        0,          0,        0,          0,        0,    3.66043,        0
"Line.L25",   2,          0,        0,        0,          0,        0,          0,        0,    3.66043,        0
"Line.L26",   1,    3.51447,    1.171,   0.5857,    2.14788,    61.12,    1.98596,    56.51,    5.95788,    103.3
"Line.L26",   2,    3.51493,        0,        0,    2.14796,    61.11,    1.98594,     56.5,    5.95788,    103.3
"Line.L27",   1,          0,        0,        0,          0,        0,          0,        0,    3.99592,        0
"Line.L27",   2,          0,        0,        0,          0,        0,          0,        0,    3.99592,        0
"Line.L28",   1,          0,        0,        0,          0,        0,          0,        0,    3.80917,        0
"Line.L28",   2,          0,        0,        0,          0,        0,          0,        0,    3.80917,        0
"Line.L29",   1,          0,        0,        0,          0,        0,          0,        0,     3.9968,        0
"Line.L29",   2,          0,        0,        0,          0,        0,          0,        0,     3.9968,        0
"Line.L30",   1,    2.31427,   0.7714,   0.3857,    1.23032,    53.16,    1.08701,    46.97,    3.26102,    99.82
"Line.L30",   2,    2.31494,        0,        0,    1.23053,    53.16,      1.087,    46.96,    3.26102,    99.89
"Line.L31",   1,    1.13196,   0.3773,   0.1887,    1.13271,    100.1,    1.13302,    100.1,    3.39907,    199.5
"Line.L31",   2,    1.13269,        0,        0,    1.13296,      100,    1.13307,      100,    3.39907,    199.8
"Line.L32",   1, 0.00105166, 0.0003506, 0.0001753, 0.000165463,    15.73, 3.51719E-005,    3.344, 0.000105516,     11.2
"Line.L32",   2, 7.05601E-012,        0,        0, 3.00573E-012,     42.6, 1.37197E-011,    194.4, 0.000105516,    50.53
"Line.L33",   1,          0,        0,        0,          0,        0,          0,        0,    1.90447,        0
"Line.L33",   2,          0,        0,        0,          0,        0,          0,        0,    1.90447,        0
"Line.L34",   1,          0,        0,        0,          0,        0,          0,        0,    7.77012,        0
"Line.L34",   2,          0,        0,        0,          0,        0,          0,        0,    7.77012,        0
"Line.L35",   1,          0,        0,        0,          0,        0,          0,        0,    2.83489,        0
"Line.L35",   2,          0,        0,        0,          0,        0,          0,        0,    2.83489,        0
"Line.L36",   1,    14647.8,     4883,     2441,    798.601,    5.452,    65.3991,   0.4465,    196.197,    5.061
"Line.L36",   2,    14647.8,        0,        0,    798.601,    5.452,    65.3991,   0.4465,    196.197,    5.061
"Line.L37",   1,          0,        0,        0,          0,        0,          0,        0,    2.91661,        0
"Line.L37",   2,          0,        0,        0,          0,        0,          0,        0,    2.91661,        0
"Line.L38",   1,          0,        0,        0,          0,        0,          0,        0,    2.80281,        0
"Line.L38",   2,          0,        0,        0,          0,        0,          0,        0,    2.80281,        0
"Line.L39",   1,          0,        0,        0,          0,        0,          0,        0,    1.40132,        0
"Line.L39",   2,          0,        0,        0,          0,        0,          0,        0,    1.40132,        0
"Line.L40",   1,          0,        0,        0,          0,        0,          0,        0,    1.17186,        0
"Line.L40",   2,          0,        0,        0,          0,        0,          0,        0,    1.17186,        0
"Line.L41",   1,    14647.5,     4882,     2441,    798.969,    5.455,    65.1658,   0.4449,    195.497,    5.063
"Line.L41",   2,    14647.5,        0,        0,    798.969,    5.455,    65.1658,   0.4449,    195.497,    5.063
"Line.L42",   1,          0,        0,        0,          0,        0,          0,        0,    2.01255,        0
"Line.L42",   2,          0,        0,        0,          0,        0,          0,        0,    2.01255,        0
"Line.L43",   1,    14646.7,     4882,     2441,    798.369,    5.451,    65.7018,   0.4486,    197.105,    5.058
"Line.L43",   2,    14646.7,        0,        0,    798.369,    5.451,    65.7018,   0.4486,    197.105,    5.058
"Line.L44",   1,          0,        0,        0,          0,        0,          0,        0,    1.71134,        0
"Line.L44",   2,          0,        0,        0,          0,        0,          0,        0,    1.71134,        0
"Line.L45",   1,    14646.2,     4882,     2441,    798.295,    5.451,    65.5039,   0.4472,    196.512,    5.061
"Line.L45",   2,    14646.2,        0,        0,    798.295,    5.451,    65.5039,   0.4472,    196.512,    5.061
"Line.L46",   1,          0,        0,        0,          0,        0,          0,        0,   0.855612,        0
"Line.L46",   2,          0,        0,        0,          0,        0,          0,        0,   0.855612,        0
"Line.L47",   1,    2.39608,   0.7987,   0.3993,   0.218035,      9.1,   0.120261,    5.019,   0.360782,    6.839
"Line.L47",   2,    2.39622,        0,        0,   0.218005,    9.098,    0.12028,     5.02,   0.360782,     6.84
"Line.L48",   1,    14643.1,     4881,     2441,     798.13,    5.451,    65.5868,   0.4479,     196.76,     5.06
"Line.L48",   2,    14643.1,        0,        0,     798.13,    5.451,    65.5867,   0.4479,     196.76,     5.06
"Line.L49",   1,    14642.1,     4881,     2440,    797.828,    5.449,    65.8845,     0.45,    197.653,    5.056
"Line.L49",   2,    14642.1,        0,        0,    797.828,    5.449,    65.8844,     0.45,    197.653,    5.056
"Line.L50",   1,      14642,     4881,     2440,    797.952,     5.45,    65.8108,   0.4495,    197.433,    5.057
"Line.L50",   2,      14642,        0,        0,    797.952,     5.45,    65.8108,   0.4495,    197.433,    5.057
"Line.L51",   1, 8.50351E-007, 2.835E-007, 1.417E-007, 2.53174E-007,    29.77, 1.07376E-007,    12.63, 3.22128E-007,    19.65
"Line.L51",   2, 2.14285E-011,        0,        0, 1.1434E-011,    53.36, 1.17714E-011,    54.93, 3.22128E-007,      108
"Line.L52",   1,    95.8624,    23.97,    15.98,    8.75701,    9.135,    3.00875,    3.139,    9.02625,    12.04
"Line.L52",   2,    95.8631,        0,        0,    8.75721,    9.135,    3.00877,    3.139,    9.02625,    12.04
"Line.L53",   1,    94.1546,    23.54,    15.69,    7.05625,    7.494,    1.38632,    1.472,    4.15895,    8.637
"Line.L53",   2,     94.155,        0,        0,    7.05637,    7.494,    1.38632,    1.472,    4.15895,    8.637
"Line.L54",   1,    1.67906,   0.5597,   0.2798,   0.876113,    52.18,   0.812805,    48.41,    2.43841,    99.78
"Line.L54",   2,    1.67995,        0,        0,   0.876325,    52.16,   0.812783,    48.38,    2.43841,    99.89
"Line.L55",   1,    92.4762,    30.83,    15.41,    6.63016,     7.17,   0.923759,   0.9989,    2.77128,    8.043
"Line.L55",   2,    92.4774,        0,        0,    6.62996,    7.169,   0.923764,   0.9989,    2.77128,    8.043
"Line.L56",   1,   0.888354,   0.2961,   0.1481,   0.889309,    100.1,   0.889342,    100.1,    2.66802,    199.6
"Line.L56",   2,   0.889288,        0,        0,   0.889288,      100,   0.889288,      100,    2.66802,      200
"Line.L57",   1,          0,        0,        0,          0,        0,          0,        0,    5.22413,        0
"Line.L57",   2,          0,        0,        0,          0,        0,          0,        0,    5.22413,        0
"Line.L58",   1,     90.736,    30.25,    15.12,    7.59077,    8.366,    2.43528,    2.684,    7.30585,    10.11
"Line.L58",   2,    90.7385,        0,        0,    7.59027,    8.365,    2.43524,    2.684,    7.30585,    10.11
"Line.L59",   1,          0,        0,        0,          0,        0,          0,        0,      2.665,        0
"Line.L59",   2,          0,        0,        0,          0,        0,          0,        0,      2.665,        0
"Line.L60",   1, 0.00401946,  0.00134, 0.0006699, 0.000516171,    12.84, 0.000113521,    2.824, 0.000340562,    10.02
"Line.L60",   2, 3.58484E-006,        0,        0, 1.77809E-007,     4.96, 1.13313E-007,    3.161, 0.000340562,    2.001
"Line.L61",   1,    15.6645,    5.222,    2.611,    3.20245,    20.44,    2.67678,    17.09,    8.03034,    35.01
"Line.L61",   2,    15.6732,        0,        0,     3.2021,    20.43,    2.67689,    17.08,    8.03034,    34.98
"Line.L62",   1,    14.0803,    4.693,    2.347,    1.60916,    11.43,    1.48879,    10.57,    4.46638,    16.36
"Line.L62",   2,    14.0865,        0,        0,    1.60891,    11.42,    1.48879,    10.57,    4.46638,    16.35
"Line.L63",   1,    12.3878,    4.129,    2.065,    2.94281,    23.76,    3.19275,    25.77,    9.57826,    44.53
"Line.L63",   2,    12.4003,        0,        0,    2.94229,    23.73,    3.19275,    25.75,    9.57826,    44.45
"Line.L64",   1,     9.2599,    3.087,    1.543,    4.21531,    45.52,    3.18267,    34.37,    9.54802,    75.75
"Line.L64",   2,    9.27582,        0,        0,     4.2148,    45.44,    3.18296,    34.31,    9.54802,    75.56
"Line.L65",   1,    3.17333,    1.058,   0.5289,    3.18363,    100.3,    3.18296,    100.3,    9.54889,    198.6
"Line.L65",   2,    3.18318,        0,        0,    3.18318,      100,    3.18318,      100,    9.54889,      200
"Line.L66",   1,          0,        0,        0,          0,        0,          0,        0,     17.071,        0
"Line.L66",   2,          0,        0,        0,          0,        0,          0,        0,     17.071,        0
"Line.L67",   1,    41.0285,    13.68,    6.838,    1.36527,    3.328,    4.86697,    11.86,    14.6009,     12.6
"Line.L67",   2,    41.0295,        0,        0,    1.36549,    3.328,    4.86697,    11.86,    14.6009,     12.6
"Line.L68",   1,    20.7738,    6.925,    3.462,    2.15621,    10.38,     2.2116,    10.65,     6.6348,     20.2
"Line.L68",   2,    20.7747,        0,        0,    2.15604,    10.38,     2.2116,    10.65,     6.6348,     20.2
"Line.L69",   1,          0,        0,        0,          0,        0,          0,        0,    14.2249,        0
"Line.L69",   2,          0,        0,        0,          0,        0,          0,        0,    14.2249,        0
"Line.L70",   1,          0,        0,        0,          0,        0,          0,        0,    8.53396,        0
"Line.L70",   2,          0,        0,        0,          0,        0,          0,        0,    8.53396,        0
"Line.L71",   1,          0,        0,        0,          0,        0,          0,        0,    5.68941,        0
"Line.L71",   2,          0,        0,        0,          0,        0,          0,        0,    5.68941,        0
"Line.L72",   1,          0,        0,        0,          0,        0,          0,        0,    16.7502,        0
"Line.L72",   2,          0,        0,        0,          0,        0,          0,        0,    16.7502,        0
"Line.L73",   1,    35.4461,    11.82,    5.908,    6.66639,    18.81,    6.01451,    16.97,    18.0435,    29.24
"Line.L73",   2,    35.4468,        0,        0,    6.66647,    18.81,    6.01453,    16.97,    18.0435,    29.24
"Line.L74",   1,          0,        0,        0,          0,        0,          0,        0,    11.0019,        0
"Line.L74",   2,          0,        0,        0,          0,        0,          0,        0,    11.0019,        0
"Line.L75",   1,          0,        0,        0,          0,        0,          0,        0,    5.74581,        0
"Line.L75",   2,          0,        0,        0,          0,        0,          0,        0,    5.74581,        0
"Line.L76",   1,    11.4026,    3.801,      1.9,   0.328705,    2.883,    0.29122,    2.554,   0.873659,    4.435
"Line.L76",   2,     11.404,        0,        0,   0.328775,    2.883,   0.291294,    2.554,   0.873659,    4.438
"Line.L77",   1,    11.7798,    3.927,    1.963,    4.52095,    38.38,     5.9635,    50.62,    17.8905,    61.58
"Line.L77",   2,    11.7816,        0,        0,    4.52127,    38.38,    5.96358,    50.62,    17.8905,     61.6
"Line.L78",   1,    9.43099,    3.144,    1.572,    1.65472,    17.55,    1.88093,    19.94,    5.64279,     37.3
"Line.L78",   2,    9.43134,        0,        0,    1.65472,    17.54,    1.88092,    19.94,    5.64279,     37.3
"Line.L79",   1,    1.73641,   0.5788,   0.2894,    1.73733,    100.1,    1.73721,      100,    5.21163,    199.8
"Line.L79",   2,    1.73717,        0,        0,    1.73717,      100,    1.73717,      100,    5.21163,      200
"Line.L80",   1,    7.69548,    2.565,    1.283,    1.82517,    23.72,    1.96743,    25.57,     5.9023,    49.23
"Line.L80",   2,    7.69718,        0,        0,     1.8255,    23.72,    1.96748,    25.56,     5.9023,    49.22
"Line.L81",   1,    5.72429,    1.908,    0.954,    3.25304,    56.83,    3.38074,    59.06,    10.1422,    100.6
"Line.L81",   2,    5.72491,        0,        0,    3.25311,    56.82,    3.38074,    59.05,    10.1422,    100.6
"Line.L82",   1,    2.85325,   0.9511,   0.4755,    1.61081,    56.46,    1.67573,    58.73,    5.02719,    99.87
"Line.L82",   2,    2.85411,        0,        0,    1.61071,    56.43,    1.67569,    58.71,    5.02719,    99.93
"Line.L83",   1,          0,        0,        0,          0,        0,          0,        0,    8.61616,        0
"Line.L83",   2,          0,        0,        0,          0,        0,          0,        0,    8.61616,        0
"Line.L84",   1,   0.957149,    0.319,   0.1595,   0.957885,    100.1,   0.958033,    100.1,     2.8741,    199.6
"Line.L84",   2,   0.958056,        0,        0,   0.958056,      100,   0.958056,      100,     2.8741,      200
