Element, Terminal,  I1, %Normal, %Emergency, I2, %I2/I1, I0, %I0/I1, Iresidual, %NEMA
"Vsource.SOURCE",   1,    185.401,        0,        0,    24.7979,    13.38,    17.0787,    9.212,    51.2362,    21.03
"Vsource.SOURCE",   2,    185.401,        0,        0,    24.7979,    13.38,    17.0787,    9.212,    51.2362,    21.03
"Transformer.REG1A",   1,    185.401,    24.27,     17.8,    24.7979,    13.38,    17.0787,    9.212, 3.37604E-009,    21.03
"Transformer.REG1A",   2,    183.113,        0,        0,    24.4917,    13.38,    16.8679,    9.212, 3.37604E-009,    21.03
"Line.L115",   1,    183.113,    30.52,    30.52,    24.4917,    13.38,    16.8679,    9.212,    50.6036,    21.03
"Line.L115",   2,    183.114,        0,        0,    24.4921,    13.38,     16.868,    9.212,    50.6036,    21.03
"Line.L1",   1,          0,        0,        0,          0,        0,          0,        0,    3.06865,        0
"Line.L1",   2,          0,        0,        0,          0,        0,          0,        0,    3.06865,        0
"Line.L2",   1,          0,        0,        0,          0,        0,          0,        0,    15.5252,        0
"Line.L2",   2,          0,        0,        0,          0,        0,          0,        0,    15.5252,        0
"Line.L3",   1,    174.872,    29.15,    29.15,    24.6137,    14.08,      16.79,    9.601,    50.3701,    23.22
"Line.L3",   2,    174.873,        0,        0,     24.614,    14.08,    16.7901,    9.601,    50.3701,    23.22
"Line.L4",   1,          0,        0,        0,          0,        0,          0,        0,     6.1428,        0
"Line.L4",   2,          0,        0,        0,          0,        0,          0,        0,     6.1428,        0
"Line.L5",   1,          0,        0,        0,          0,        0,          0,        0,    9.38306,        0
"Line.L5",   2,          0,        0,        0,          0,        0,          0,        0,    9.38306,        0
"Line.L6",   1,          0,        0,        0,          0,        0,          0,        0,    6.27831,        0
"Line.L6",   2,          0,        0,        0,          0,        0,          0,        0,    6.27831,        0
"Line.L7",   1,    173.849,    28.97,    28.97,    23.6049,    13.58,    15.7855,     9.08,    47.3565,    22.17
"Line.L7",   2,     173.85,        0,        0,    23.6051,    13.58,    15.7855,     9.08,    47.3565,    22.17
"Line.L8",   1,          0,        0,        0,          0,        0,          0,        0,    3.07045,        0
"Line.L8",   2,          0,        0,        0,          0,        0,          0,        0,    3.07045,        0
"Line.L9",   1,          0,        0,        0,          0,        0,          0,        0,    15.6218,        0
"Line.L9",   2,          0,        0,        0,          0,        0,          0,        0,    15.6218,        0
"Line.L10",   1,    167.622,    27.94,    27.94,    19.2242,    11.47,    11.5205,    6.873,    34.5614,     17.4
"Line.L10",   2,    167.623,        0,        0,    19.2245,    11.47,    11.5205,    6.873,    34.5614,     17.4
"Line.L11",   1,          0,        0,        0,          0,        0,          0,        0,    9.40626,        0
"Line.L11",   2,          0,        0,        0,          0,        0,          0,        0,    9.40626,        0
"Line.L12",   1,          0,        0,        0,          0,        0,          0,        0,     15.499,        0
"Line.L12",   2,          0,        0,        0,          0,        0,          0,        0,     15.499,        0
"Line.L13",   1,    59.6977,     19.9,     9.95,    9.42255,    15.78,    7.49764,    12.56,    22.4929,    27.92
"Line.L13",   2,    59.7016,        0,        0,    9.42232,    15.78,    7.49747,    12.56,    22.4929,    27.91
"Line.L14",   1,          0,        0,        0,          0,        0,          0,        0,    6.30249,        0
"Line.L14",   2,          0,        0,        0,          0,        0,          0,        0,    6.30249,        0
"Line.L15",   1,          0,        0,        0,          0,        0,          0,        0,    3.10495,        0
"Line.L15",   2,          0,        0,        0,          0,        0,          0,        0,    3.10495,        0
"Line.L16",   1,          0,        0,        0,          0,        0,          0,        0,    6.15456,        0
"Line.L16",   2,          0,        0,        0,          0,        0,          0,        0,    6.15456,        0
"Line.L17",   1,          0,        0,        0,          0,        0,          0,        0,    3.07665,        0
"Line.L17",   2,          0,        0,        0,          0,        0,          0,        0,    3.07665,        0
"Line.L18",   1,          0,        0,        0,          0,        0,          0,        0,    12.3795,        0
"Line.L18",   2,          0,        0,        0,          0,        0,          0,        0,    12.3795,        0
"Line.L19",   1,    14.4803,    4.827,    2.413,    4.11838,    28.44,     4.0958,    28.29,    12.2874,    56.72
"Line.L19",   2,    14.4816,        0,        0,    4.11864,    28.44,    4.09579,    28.28,    12.2874,    56.72
"Line.L20",   1,          0,        0,        0,          0,        0,          0,        0,     6.2104,        0
"Line.L20",   2,          0,        0,        0,          0,        0,          0,        0,     6.2104,        0
"Line.L21",   1,          0,        0,        0,          0,        0,          0,        0,    6.27359,        0
"Line.L21",   2,          0,        0,        0,          0,        0,          0,        0,    6.27359,        0
"Line.L22",   1,    12.3904,     4.13,    2.065,    6.20969,    50.12,    6.18676,    49.93,    18.5603,    99.89
"Line.L22",   2,    12.3914,        0,        0,    6.20991,    50.11,    6.18675,    49.93,    18.5603,    99.91
"Line.L23",   1,          0,        0,        0,          0,        0,          0,        0,    6.16015,        0
"Line.L23",   2,          0,        0,        0,          0,        0,          0,        0,    6.16015,        0
"Line.L24",   1,     10.338,    3.446,    1.723,    5.49955,     53.2,    5.48193,    53.03,    16.4458,    99.89
"Line.L24",   2,    10.3392,        0,        0,    5.49971,    53.19,     5.4819,    53.02,    16.4458,    99.91
"Line.L25",   1,          0,        0,        0,          0,        0,          0,        0,    6.15323,        0
"Line.L25",   2,          0,        0,        0,          0,        0,          0,        0,    6.15323,        0
"Line.L26",   1,     6.2042,    2.068,    1.034,    3.60198,    58.06,     3.5939,    57.93,    10.7817,    100.7
"Line.L26",   2,    6.20505,        0,        0,    3.60206,    58.05,    3.59387,    57.92,    10.7817,    100.7
"Line.L27",   1,          0,        0,        0,          0,        0,          0,        0,    6.20836,        0
"Line.L27",   2,          0,        0,        0,          0,        0,          0,        0,    6.20836,        0
"Line.L28",   1,          0,        0,        0,          0,        0,          0,        0,    6.12243,        0
"Line.L28",   2,          0,        0,        0,          0,        0,          0,        0,    6.12243,        0
"Line.L29",   1,          0,        0,        0,          0,        0,          0,        0,    6.20991,        0
"Line.L29",   2,          0,        0,        0,          0,        0,          0,        0,    6.20991,        0
"Line.L30",   1,    4.13462,    1.378,   0.6891,    2.07235,    50.12,     2.0655,    49.96,     6.1965,    99.82
"Line.L30",   2,    4.13589,        0,        0,    2.07262,    50.11,    2.06548,    49.94,     6.1965,    99.88
"Line.L31",   1,    2.05172,   0.6839,    0.342,    2.05348,    100.1,    2.05396,    100.1,    6.16187,    199.5
"Line.L31",   2,    2.05321,        0,        0,    2.05384,      100,    2.05402,      100,    6.16187,    199.8
"Line.L32",   1, 0.00190198, 0.000634, 0.000317, 0.000225545,    11.86, 4.62919E-005,    2.434, 0.000138876,     8.65
"Line.L32",   2, 2.72897E-011,        0,        0, 2.94446E-011,    107.9, 1.95535E-011,    71.65, 0.000138876,    57.64
"Line.L33",   1,          0,        0,        0,          0,        0,          0,        0,    3.06118,        0
"Line.L33",   2,          0,        0,        0,          0,        0,          0,        0,    3.06118,        0
"Line.L34",   1,          0,        0,        0,          0,        0,          0,        0,    9.23094,        0
"Line.L34",   2,          0,        0,        0,          0,        0,          0,        0,    9.23094,        0
"Line.L35",   1,          0,        0,        0,          0,        0,          0,        0,    6.22393,        0
"Line.L35",   2,          0,        0,        0,          0,        0,          0,        0,    6.22393,        0
"Line.L36",   1,     34.989,    11.66,    5.831,    1.41828,    4.053,   0.903108,    2.581,    2.70932,    6.479
"Line.L36",   2,    34.9903,        0,        0,    1.41854,    4.054,    0.90308,    2.581,    2.70932,     6.48
"Line.L37",   1,          0,        0,        0,          0,        0,          0,        0,    6.25012,        0
"Line.L37",   2,          0,        0,        0,          0,        0,          0,        0,    6.25012,        0
"Line.L38",   1,          0,        0,        0,          0,        0,          0,        0,    6.17907,        0
"Line.L38",   2,          0,        0,        0,          0,        0,          0,        0,    6.17907,        0
"Line.L39",   1,          0,        0,        0,          0,        0,          0,        0,    3.07412,        0
"Line.L39",   2,          0,        0,        0,          0,        0,          0,        0,    3.07412,        0
"Line.L40",   1,          0,        0,        0,          0,        0,          0,        0,    3.07953,        0
"Line.L40",   2,          0,        0,        0,          0,        0,          0,        0,    3.07953,        0
"Line.L41",   1,    33.9702,    11.32,    5.662,    2.41573,    7.111,    1.90098,    5.596,    5.70295,    12.69
"Line.L41",   2,    33.9715,        0,        0,    2.41598,    7.112,    1.90096,    5.596,    5.70295,    12.69
"Line.L42",   1,          0,        0,        0,          0,        0,          0,        0,    6.27037,        0
"Line.L42",   2,          0,        0,        0,          0,        0,          0,        0,    6.27037,        0
"Line.L43",   1,    30.8745,    10.29,    5.146,    1.58354,    5.129,   0.691087,    2.238,    2.07326,    7.259
"Line.L43",   2,    30.8756,        0,        0,    1.58375,    5.129,   0.691122,    2.238,    2.07326,    7.259
"Line.L44",   1,          0,        0,        0,          0,        0,          0,        0,    6.19136,        0
"Line.L44",   2,          0,        0,        0,          0,        0,          0,        0,    6.19136,        0
"Line.L45",   1,    28.8286,     9.61,    4.805,   0.481585,    1.671,    1.37408,    4.766,    4.12224,    6.427
"Line.L45",   2,      28.83,        0,        0,   0.481332,     1.67,    1.37404,    4.766,    4.12224,    6.426
"Line.L46",   1,          0,        0,        0,          0,        0,          0,        0,    3.08627,        0
"Line.L46",   2,          0,        0,        0,          0,        0,          0,        0,    3.08627,        0
"Line.L47",   1,    12.0421,    4.014,    2.007,  0.0105692,  0.08777,  0.0173127,   0.1438,  0.0519381,   0.1827
"Line.L47",   2,    12.0428,        0,        0,  0.0109021,  0.09053,  0.0174645,    0.145,  0.0519381,   0.1859
"Line.L48",   1,    10.8269,    3.609,    1.804,   0.470666,    4.347,    1.36041,    12.57,    4.08122,    17.02
"Line.L48",   2,     10.828,        0,        0,   0.471228,    4.352,    1.36051,    12.56,    4.08122,    17.02
"Line.L49",   1,    3.07963,    1.027,   0.5133,     1.7822,    57.87,    1.77828,    57.74,    5.33484,     99.7
"Line.L49",   2,    3.08057,        0,        0,    1.78188,    57.84,    1.77802,    57.72,    5.33484,    99.77
"Line.L50",   1,    1.02628,   0.3421,    0.171,    1.03071,    100.4,    1.02943,    100.3,    3.08829,    198.6
"Line.L50",   2,    1.02721,        0,        0,    1.03017,    100.3,    1.02932,    100.2,    3.08829,    199.1
"Line.L51",   1, 0.00422012, 0.001407, 0.0007034, 0.00124992,    29.62, 0.000570674,    13.52, 0.00171202,    15.82
"Line.L51",   2, 1.07859E-007,        0,        0, 5.97293E-008,    55.38, 5.94032E-008,    55.07, 0.00171202,    110.3
"Line.L52",   1,    100.757,    25.19,    16.79,     9.8133,     9.74,    3.99672,    3.967,    11.9902,    13.35
"Line.L52",   2,    100.758,        0,        0,    9.81349,     9.74,    3.99675,    3.967,    11.9902,    13.35
"Line.L53",   1,    98.7013,    24.68,    16.45,    7.79197,    7.894,    2.11061,    2.138,    6.33182,    9.464
"Line.L53",   2,    98.7018,        0,        0,    7.79208,    7.895,    2.11061,    2.138,    6.33182,    9.464
"Line.L54",   1,    2.06431,   0.6881,   0.3441,    1.03154,    49.97,    1.03483,    50.13,    3.10449,    99.77
"Line.L54",   2,    2.06548,        0,        0,    1.03179,    49.95,    1.03482,     50.1,    3.10449,    99.88
"Line.L55",   1,    96.6377,    32.21,    16.11,    7.52331,    7.785,     1.2679,    1.312,     3.8037,    8.572
"Line.L55",   2,    96.6393,        0,        0,    7.52293,    7.785,    1.26793,    1.312,     3.8037,    8.572
"Line.L56",   1,    1.02372,   0.3412,   0.1706,    1.02493,    100.1,    1.02494,    100.1,    3.07483,    199.5
"Line.L56",   2,    1.02489,        0,        0,    1.02489,      100,    1.02489,      100,    3.07483,      200
"Line.L57",   1,          0,        0,        0,          0,        0,          0,        0,    6.18085,        0
"Line.L57",   2,          0,        0,        0,          0,        0,          0,        0,    6.18085,        0
"Line.L58",   1,    94.5792,    31.53,    15.76,    9.18757,    9.714,    2.73486,    2.892,    8.20457,    10.93
"Line.L58",   2,    94.5824,        0,        0,    9.18673,    9.713,    2.73479,    2.891,    8.20457,    10.93
"Line.L59",   1,          0,        0,        0,          0,        0,          0,        0,     3.0759,        0
"Line.L59",   2,          0,        0,        0,          0,        0,          0,        0,     3.0759,        0
"Line.L60",   1, 0.00521663, 0.001739, 0.0008694, 0.000617405,    11.84, 0.000122994,    2.358, 0.000368983,    8.719
"Line.L60",   2, 4.66224E-006,        0,        0, 1.34426E-007,    2.883, 1.32245E-007,    2.837, 0.000368983,    0.189
"Line.L61",   1,    19.6578,    6.553,    3.276,    4.30655,    21.91,    3.26109,    16.59,    9.78326,    35.76
"Line.L61",   2,    19.6691,        0,        0,    4.30654,    21.89,    3.26112,    16.58,    9.78326,    35.73
"Line.L62",   1,    17.5872,    5.862,    2.931,    2.22243,    12.64,    1.75856,    9.999,    5.27569,    16.36
"Line.L62",   2,    17.5951,        0,        0,    2.22242,    12.63,    1.75858,    9.995,    5.27569,    16.35
"Line.L63",   1,    15.5372,    5.179,     2.59,    3.67598,    23.66,    3.81724,    24.57,    11.4517,       42
"Line.L63",   2,    15.5534,        0,        0,    3.67598,    23.63,    3.81728,    24.54,    11.4517,    41.91
"Line.L64",   1,    11.7427,    3.914,    1.957,    5.33429,    45.43,    3.80881,    32.44,    11.4264,    73.06
"Line.L64",   2,    11.7635,        0,        0,    5.33426,    45.35,    3.80884,    32.38,    11.4264,    72.87
"Line.L65",   1,    3.79628,    1.265,   0.6327,    3.80887,    100.3,    3.80884,    100.3,    11.4265,    198.4
"Line.L65",   2,    3.80886,        0,        0,    3.80886,      100,    3.80886,      100,    11.4265,      200
"Line.L66",   1,          0,        0,        0,          0,        0,          0,        0,    18.3322,        0
"Line.L66",   2,          0,        0,        0,          0,        0,          0,        0,    18.3322,        0
"Line.L67",   1,    44.6009,    14.87,    7.433,     0.5287,    1.185,    4.97857,    11.16,    14.9357,    10.59
"Line.L67",   2,    44.6021,        0,        0,   0.528743,    1.185,    4.97858,    11.16,    14.9357,    10.59
"Line.L68",   1,    22.5641,    7.521,    3.761,    2.75726,    12.22,     2.7445,    12.16,    8.23351,    22.91
"Line.L68",   2,    22.5652,        0,        0,    2.75699,    12.22,    2.74449,    12.16,    8.23351,    22.91
"Line.L69",   1,          0,        0,        0,          0,        0,          0,        0,    15.2777,        0
"Line.L69",   2,          0,        0,        0,          0,        0,          0,        0,    15.2777,        0
"Line.L70",   1,          0,        0,        0,          0,        0,          0,        0,    9.16711,        0
"Line.L70",   2,          0,        0,        0,          0,        0,          0,        0,    9.16711,        0
"Line.L71",   1,          0,        0,        0,          0,        0,          0,        0,    6.11192,        0
"Line.L71",   2,          0,        0,        0,          0,        0,          0,        0,    6.11192,        0
"Line.L72",   1,          0,        0,        0,          0,        0,          0,        0,    18.5553,        0
"Line.L72",   2,          0,        0,        0,          0,        0,          0,        0,    18.5553,        0
"Line.L73",   1,    38.4171,    12.81,    6.403,    6.71382,    17.48,    6.65386,    17.32,    19.9616,    29.03
"Line.L73",   2,     38.418,        0,        0,    6.71385,    17.48,     6.6539,    17.32,    19.9616,    29.03
"Line.L74",   1,          0,        0,        0,          0,        0,          0,        0,    12.4222,        0
"Line.L74",   2,          0,        0,        0,          0,        0,          0,        0,    12.4222,        0
"Line.L75",   1,          0,        0,        0,          0,        0,          0,        0,    6.13468,        0
"Line.L75",   2,          0,        0,        0,          0,        0,          0,        0,    6.13468,        0
"Line.L76",   1,    12.3072,    4.102,    2.051,  0.0566695,   0.4605,  0.0559966,    0.455,    0.16799,    0.903
"Line.L76",   2,    12.3089,        0,        0,  0.0563396,   0.4577,  0.0559103,   0.4542,    0.16799,    0.899
"Line.L77",   1,    12.4193,     4.14,     2.07,    4.66382,    37.55,    6.66477,    53.66,    19.9943,    58.56
"Line.L77",   2,    12.4213,        0,        0,    4.66402,    37.55,    6.66491,    53.66,    19.9943,    58.59
"Line.L78",   1,    10.2668,    3.422,    1.711,    2.08087,    20.27,    2.06677,    20.13,     6.2003,    40.39
"Line.L78",   2,    10.2673,        0,        0,    2.08087,    20.27,    2.06675,    20.13,     6.2003,    40.39
"Line.L79",   1,    2.10332,   0.7011,   0.3506,     2.1045,    100.1,    2.10433,      100,      6.313,    199.8
"Line.L79",   2,    2.10428,        0,        0,    2.10428,      100,    2.10428,      100,      6.313,      200
"Line.L80",   1,    8.16394,    2.721,    1.361,    2.05282,    25.14,    2.04565,    25.06,    6.13695,     50.2
"Line.L80",   2,    8.16596,        0,        0,    2.05329,    25.14,    2.04568,    25.05,    6.13695,     50.2
"Line.L81",   1,    6.12373,    2.041,    1.021,    3.54544,     57.9,    3.53745,    57.77,    10.6124,    100.2
"Line.L81",   2,    6.12447,        0,        0,    3.54554,    57.89,    3.53744,    57.76,    10.6124,    100.2
"Line.L82",   1,    3.05735,    1.019,   0.5096,    1.76613,    57.77,    1.76263,    57.65,    5.28788,    99.86
"Line.L82",   2,    3.05842,        0,        0,      1.766,    57.74,    1.76257,    57.63,    5.28788,    99.93
"Line.L83",   1,          0,        0,        0,          0,        0,          0,        0,    9.20137,        0
"Line.L83",   2,          0,        0,        0,          0,        0,          0,        0,    9.20137,        0
"Line.L84",   1,    1.02132,   0.3404,   0.1702,    1.02213,    100.1,    1.02237,    100.1,    3.06711,    199.5
"Line.L84",   2,    1.02238,        0,        0,    1.02238,      100,    1.02238,      100,    3.06711,      200
