Element, Terminal,  I1, %Normal, %Emergency, I2, %I2/I1, I0, %I0/I1, Iresidual, %NEMA
"Vsource.SOURCE",   1,    19720.9,        0,        0,    1156.39,    5.864,    151.308,   0.7672,    453.925,    4.981
"Vsource.SOURCE",   2,    19720.9,        0,        0,    1156.39,    5.864,    151.308,   0.7672,    453.925,    4.981
"Transformer.REG1A",   1,    19720.9,     2581,     1893,    1156.39,    5.864,    151.308,   0.7672, 2.44472E-009,    4.981
"Transformer.REG1A",   2,    17928.1,        0,        0,    1051.26,    5.864,    137.553,   0.7672, 2.44472E-009,    4.981
"Line.L115",   1,    17928.1,     2988,     2988,    1051.26,    5.864,    137.553,   0.7672,     412.66,    4.981
"Line.L115",   2,    17928.1,        0,        0,    1051.26,    5.864,    137.553,   0.7672,     412.66,    4.981
"Line.L1",   1,          0,        0,        0,          0,        0,          0,        0,    3.17226,        0
"Line.L1",   2,          0,        0,        0,          0,        0,          0,        0,    3.17226,        0
"Line.L2",   1,          0,        0,        0,          0,        0,          0,        0,    15.5298,        0
"Line.L2",   2,          0,        0,        0,          0,        0,          0,        0,    15.5298,        0
"Line.L3",   1,    17921.4,     2987,     2987,    1051.56,    5.868,    136.841,   0.7636,    410.524,    5.017
"Line.L3",   2,    17921.4,        0,        0,    1051.56,    5.868,    136.841,   0.7636,    410.524,    5.017
"Line.L4",   1,          0,        0,        0,          0,        0,          0,        0,     6.3939,        0
"Line.L4",   2,          0,        0,        0,          0,        0,          0,        0,     6.3939,        0
"Line.L5",   1,          0,        0,        0,          0,        0,          0,        0,    9.13658,        0
"Line.L5",   2,          0,        0,        0,          0,        0,          0,        0,    9.13658,        0
"Line.L6",   1,          0,        0,        0,          0,        0,          0,        0,     6.0318,        0
"Line.L6",   2,          0,        0,        0,          0,        0,          0,        0,     6.0318,        0
"Line.L7",   1,    17920.7,     2987,     2987,    1050.63,    5.863,    137.799,   0.7689,    413.398,    5.013
"Line.L7",   2,    17920.7,        0,        0,    1050.63,    5.863,    137.799,   0.7689,    413.398,    5.013
"Line.L8",   1,          0,        0,        0,          0,        0,          0,        0,    2.80431,        0
"Line.L8",   2,          0,        0,        0,          0,        0,          0,        0,    2.80431,        0
"Line.L9",   1,          0,        0,        0,          0,        0,          0,        0,    14.0637,        0
"Line.L9",   2,          0,        0,        0,          0,        0,          0,        0,    14.0637,        0
"Line.L10",   1,    17916.4,     2986,     2986,     1046.7,    5.842,     141.98,   0.7925,    425.939,     4.99
"Line.L10",   2,    17916.4,        0,        0,     1046.7,    5.842,     141.98,   0.7925,    425.939,     4.99
"Line.L11",   1,          0,        0,        0,          0,        0,          0,        0,     8.0572,        0
"Line.L11",   2,          0,        0,        0,          0,        0,          0,        0,     8.0572,        0
"Line.L12",   1,          0,        0,        0,          0,        0,          0,        0,    11.5987,        0
"Line.L12",   2,          0,        0,        0,          0,        0,          0,        0,    11.5987,        0
"Line.L13",   1,    17927.5,     5976,     2988,    1043.62,    5.821,    144.403,   0.8055,    433.208,    4.952
"Line.L13",   2,    17927.5,        0,        0,    1043.62,    5.821,    144.403,   0.8055,    433.208,    4.952
"Line.L14",   1,          0,        0,        0,          0,        0,          0,        0,    5.29129,        0
"Line.L14",   2,          0,        0,        0,          0,        0,          0,        0,    5.29129,        0
"Line.L15",   1,          0,        0,        0,          0,        0,          0,        0,    2.76691,        0
"Line.L15",   2,          0,        0,        0,          0,        0,          0,        0,    2.76691,        0
"Line.L16",   1,          0,        0,        0,          0,        0,          0,        0,    4.76227,        0
"Line.L16",   2,          0,        0,        0,          0,        0,          0,        0,    4.76227,        0
"Line.L17",   1,          0,        0,        0,          0,        0,          0,        0,    2.38098,        0
"Line.L17",   2,          0,        0,        0,          0,        0,          0,        0,    2.38098,        0
"Line.L18",   1,          0,        0,        0,          0,        0,          0,        0,    5.10541,        0
"Line.L18",   2,          0,        0,        0,          0,        0,          0,        0,    5.10541,        0
"Line.L19",   1,    17911.1,     5970,     2985,       1042,    5.818,    146.385,   0.8173,    439.156,    4.938
"Line.L19",   2,    17911.1,        0,        0,       1042,    5.818,    146.385,   0.8173,    439.156,    4.938
"Line.L20",   1,          0,        0,        0,          0,        0,          0,        0,    2.55254,        0
"Line.L20",   2,          0,        0,        0,          0,        0,          0,        0,    2.55254,        0
"Line.L21",   1,          0,        0,        0,          0,        0,          0,        0,    2.18375,        0
"Line.L21",   2,          0,        0,        0,          0,        0,          0,        0,    2.18375,        0
"Line.L22",   1,    17910.5,     5970,     2985,    1042.49,    5.821,     145.98,   0.8151,    437.939,    4.935
"Line.L22",   2,    17910.5,        0,        0,    1042.49,    5.821,     145.98,   0.8151,    437.939,    4.935
"Line.L23",   1,          0,        0,        0,          0,        0,          0,        0,    1.60561,        0
"Line.L23",   2,          0,        0,        0,          0,        0,          0,        0,    1.60561,        0
"Line.L24",   1,      17910,     5970,     2985,    1042.69,    5.822,     145.78,    0.814,    437.339,    4.941
"Line.L24",   2,      17910,        0,        0,    1042.69,    5.822,     145.78,    0.814,    437.339,    4.941
"Line.L25",   1,          0,        0,        0,          0,        0,          0,        0,    1.22472,        0
"Line.L25",   2,          0,        0,        0,          0,        0,          0,        0,    1.22472,        0
"Line.L26",   1,    17909.4,     5970,     2985,    1042.47,    5.821,    146.013,   0.8153,    438.039,    4.943
"Line.L26",   2,    17909.4,        0,        0,    1042.47,    5.821,    146.013,   0.8153,    438.039,    4.943
"Line.L27",   1,          0,        0,        0,          0,        0,          0,        0,    1.05962,        0
"Line.L27",   2,          0,        0,        0,          0,        0,          0,        0,    1.05962,        0
"Line.L28",   1,          0,        0,        0,          0,        0,          0,        0,    1.13976,        0
"Line.L28",   2,          0,        0,        0,          0,        0,          0,        0,    1.13976,        0
"Line.L29",   1,          0,        0,        0,          0,        0,          0,        0,    1.05992,        0
"Line.L29",   2,          0,        0,        0,          0,        0,          0,        0,    1.05992,        0
"Line.L30",   1,    17909.3,     5970,     2985,    1042.29,     5.82,    146.206,   0.8164,    438.617,    4.942
"Line.L30",   2,    17909.3,        0,        0,    1042.29,     5.82,    146.206,   0.8164,    438.617,    4.942
"Line.L31",   1,    24.7993,    8.266,    4.133,    3.84722,    15.51,   0.380726,    1.535,    1.14218,    13.91
"Line.L31",   2,    24.7993,        0,        0,    3.84722,    15.51,   0.380726,    1.535,    1.14218,    13.91
"Line.L32",   1,    24.7992,    8.266,    4.133,     3.8472,    15.51,   0.380698,    1.535,    1.14209,    13.91
"Line.L32",   2,    24.7992,        0,        0,     3.8472,    15.51,   0.380698,    1.535,    1.14209,    13.91
"Line.L33",   1,          0,        0,        0,          0,        0,          0,        0,   0.569846,        0
"Line.L33",   2,          0,        0,        0,          0,        0,          0,        0,   0.569846,        0
"Line.L34",   1,          0,        0,        0,          0,        0,          0,        0,    7.14305,        0
"Line.L34",   2,          0,        0,        0,          0,        0,          0,        0,    7.14305,        0
"Line.L35",   1,          0,        0,        0,          0,        0,          0,        0,    2.55813,        0
"Line.L35",   2,          0,        0,        0,          0,        0,          0,        0,    2.55813,        0
"Line.L36",   1,    15.2127,    5.071,    2.535,    1.12414,    7.389,  0.0470685,   0.3094,   0.141206,    7.373
"Line.L36",   2,    15.2133,        0,        0,    1.12423,     7.39,   0.047033,   0.3092,   0.141206,    7.373
"Line.L37",   1,          0,        0,        0,          0,        0,          0,        0,    2.55195,        0
"Line.L37",   2,          0,        0,        0,          0,        0,          0,        0,    2.55195,        0
"Line.L38",   1,          0,        0,        0,          0,        0,          0,        0,    2.82196,        0
"Line.L38",   2,          0,        0,        0,          0,        0,          0,        0,    2.82196,        0
"Line.L39",   1,          0,        0,        0,          0,        0,          0,        0,     1.4109,        0
"Line.L39",   2,          0,        0,        0,          0,        0,          0,        0,     1.4109,        0
"Line.L40",   1,          0,        0,        0,          0,        0,          0,        0,    1.37208,        0
"Line.L40",   2,          0,        0,        0,          0,        0,          0,        0,    1.37208,        0
"Line.L41",   1,    14.7563,    4.919,    2.459,    1.48267,    10.05,    0.46379,    3.143,    1.39137,    11.33
"Line.L41",   2,    14.7569,        0,        0,    1.48278,    10.05,   0.463778,    3.143,    1.39137,    11.33
"Line.L42",   1,          0,        0,        0,          0,        0,          0,        0,    2.82135,        0
"Line.L42",   2,          0,        0,        0,          0,        0,          0,        0,    2.82135,        0
"Line.L43",   1,     13.405,    4.468,    2.234,   0.648611,    4.839,   0.408527,    3.048,    1.22558,    2.389
"Line.L43",   2,    13.4055,        0,        0,   0.648712,    4.839,   0.408553,    3.048,    1.22558,     2.39
"Line.L44",   1,          0,        0,        0,          0,        0,          0,        0,    2.55086,        0
"Line.L44",   2,          0,        0,        0,          0,        0,          0,        0,    2.55086,        0
"Line.L45",   1,    12.5712,     4.19,    2.095,   0.963655,    7.666,   0.711904,    5.663,    2.13571,    11.97
"Line.L45",   2,    12.5718,        0,        0,   0.963622,    7.665,   0.711888,    5.663,    2.13571,    11.97
"Line.L46",   1,          0,        0,        0,          0,        0,          0,        0,    1.27535,        0
"Line.L46",   2,          0,        0,        0,          0,        0,          0,        0,    1.27535,        0
"Line.L47",   1,     5.1974,    1.732,   0.8662,   0.333414,    6.415,   0.120565,     2.32,   0.361694,    5.705
"Line.L47",   2,    5.19771,        0,        0,   0.333587,    6.418,   0.120512,    2.319,   0.361694,    5.708
"Line.L48",   1,    4.78024,    1.593,   0.7967,   0.478384,    10.01,    0.62726,    13.12,    1.88178,    22.29
"Line.L48",   2,    4.78072,        0,        0,   0.478666,    10.01,   0.627281,    13.12,    1.88178,     22.3
"Line.L49",   1,    1.33567,   0.4452,   0.2226,   0.737469,    55.21,   0.849469,     63.6,    2.54841,    104.6
"Line.L49",   2,    1.33608,        0,        0,   0.737302,    55.18,   0.849372,    63.57,    2.54841,    104.6
"Line.L50",   1,   0.424194,   0.1414,   0.0707,   0.425818,    100.4,   0.425345,    100.3,    1.27604,    198.5
"Line.L50",   2,    0.42453,        0,        0,   0.425614,    100.3,   0.425299,    100.2,    1.27604,      199
"Line.L51",   1, 0.00182693, 0.000609, 0.0003045, 0.000581084,    31.81, 0.000207609,    11.36, 0.000622827,    22.38
"Line.L51",   2, 4.51046E-008,        0,        0, 2.32613E-008,    51.57, 2.43543E-008,       54, 0.000622827,    105.1
"Line.L52",   1,    190.877,    47.72,    31.81,    4.70514,    2.465,     2.5166,    1.318,    7.54981,    3.564
"Line.L52",   2,    190.877,        0,        0,    4.70536,    2.465,    2.51665,    1.318,    7.54981,    3.564
"Line.L53",   1,     191.93,    47.98,    31.99,    3.56206,    1.856,    1.16269,   0.6058,    3.48807,    2.454
"Line.L53",   2,     191.93,        0,        0,    3.56219,    1.856,    1.16272,   0.6058,    3.48807,    2.455
"Line.L54",   1,    1.50944,   0.5031,   0.2516,   0.801852,    53.12,   0.725073,    48.04,    2.17522,    99.77
"Line.L54",   2,    1.51021,        0,        0,   0.802115,    53.11,   0.725055,    48.01,    2.17522,    99.89
"Line.L55",   1,    192.991,    64.33,    32.17,    2.82694,    1.465,    1.51088,   0.7829,    4.53263,    2.209
"Line.L55",   2,    192.992,        0,        0,    2.82702,    1.465,    1.51086,   0.7829,    4.53263,    2.209
"Line.L56",   1,   0.819385,   0.2731,   0.1366,   0.820152,    100.1,   0.820268,    100.1,     2.4608,    199.6
"Line.L56",   2,   0.820208,        0,        0,   0.820208,      100,   0.820208,      100,     2.4608,      200
"Line.L57",   1,          0,        0,        0,          0,        0,          0,        0,    4.83553,        0
"Line.L57",   2,          0,        0,        0,          0,        0,          0,        0,    4.83553,        0
"Line.L58",   1,      194.1,     64.7,    32.35,     2.9251,    1.507,    3.12055,    1.608,    9.36165,    2.767
"Line.L58",   2,    194.102,        0,        0,    2.92483,    1.507,    3.12051,    1.608,    9.36165,    2.767
"Line.L59",   1,          0,        0,        0,          0,        0,          0,        0,    2.46098,        0
"Line.L59",   2,          0,        0,        0,          0,        0,          0,        0,    2.46098,        0
"Line.L60",   1, 0.00365864,  0.00122, 0.0006098, 0.000432599,    11.82, 0.000118729,    3.245, 0.000356188,    9.028
"Line.L60",   2, 3.26868E-006,        0,        0, 2.86997E-007,     8.78, 1.25143E-007,    3.829, 0.000356188,    5.359
"Line.L61",   1,    14.2555,    4.752,    2.376,    3.11024,    21.82,    2.41539,    16.94,    7.24618,    36.28
"Line.L61",   2,    14.2636,        0,        0,    3.10936,     21.8,    2.41534,    16.93,    7.24618,    36.25
"Line.L62",   1,    12.7792,     4.26,     2.13,    1.68367,    13.18,    1.28994,    10.09,    3.86982,    20.33
"Line.L62",   2,    12.7849,        0,        0,    1.68314,    13.17,    1.28977,    10.09,    3.86982,    20.31
"Line.L63",   1,    11.3348,    3.778,    1.889,    3.03821,     26.8,    2.74516,    24.22,    8.23548,    47.36
"Line.L63",   2,    11.3465,        0,        0,    3.03742,    26.77,     2.7448,    24.19,    8.23548,    47.28
"Line.L64",   1,    8.43822,    2.813,    1.406,    3.75912,    44.55,    2.93363,    34.77,    8.80089,    76.81
"Line.L64",   2,    8.45332,        0,        0,    3.75736,    44.45,     2.9338,    34.71,    8.80089,    76.62
"Line.L65",   1,    2.92382,   0.9746,   0.4873,    2.93522,    100.4,     2.9338,    100.3,    8.80141,    198.6
"Line.L65",   2,    2.93394,        0,        0,    2.93394,      100,    2.93394,      100,    8.80141,      200
"Line.L66",   1,          0,        0,        0,          0,        0,          0,        0,    14.6813,        0
"Line.L66",   2,          0,        0,        0,          0,        0,          0,        0,    14.6813,        0
"Line.L67",   1,    37.3649,    12.45,    6.227,    2.73731,    7.326,    4.27025,    11.43,    12.8108,    16.67
"Line.L67",   2,    37.3659,        0,        0,    2.73762,    7.327,    4.27023,    11.43,    12.8108,    16.67
"Line.L68",   1,    18.6928,    6.231,    3.115,     1.0556,    5.647,    2.12744,    11.38,    6.38233,    15.27
"Line.L68",   2,    18.6936,        0,        0,     1.0555,    5.646,    2.12745,    11.38,    6.38233,    15.27
"Line.L69",   1,          0,        0,        0,          0,        0,          0,        0,    12.2336,        0
"Line.L69",   2,          0,        0,        0,          0,        0,          0,        0,    12.2336,        0
"Line.L70",   1,          0,        0,        0,          0,        0,          0,        0,    7.33931,        0
"Line.L70",   2,          0,        0,        0,          0,        0,          0,        0,    7.33931,        0
"Line.L71",   1,          0,        0,        0,          0,        0,          0,        0,    4.89297,        0
"Line.L71",   2,          0,        0,        0,          0,        0,          0,        0,    4.89297,        0
"Line.L72",   1,          0,        0,        0,          0,        0,          0,        0,    15.4988,        0
"Line.L72",   2,          0,        0,        0,          0,        0,          0,        0,    15.4988,        0
"Line.L73",   1,    32.2098,    10.74,    5.368,    6.27769,    19.49,    5.32207,    16.52,    15.9662,    31.68
"Line.L73",   2,    32.2104,        0,        0,    6.27787,    19.49,    5.32209,    16.52,    15.9662,    31.68
"Line.L74",   1,          0,        0,        0,          0,        0,          0,        0,    10.1953,        0
"Line.L74",   2,          0,        0,        0,          0,        0,          0,        0,    10.1953,        0
"Line.L75",   1,          0,        0,        0,          0,        0,          0,        0,    5.30123,        0
"Line.L75",   2,          0,        0,        0,          0,        0,          0,        0,    5.30123,        0
"Line.L76",   1,    10.3231,    3.441,    1.721,   0.794924,      7.7,   0.298816,    2.895,   0.896447,     8.55
"Line.L76",   2,    10.3244,        0,        0,   0.795143,    7.702,   0.298856,    2.895,   0.896447,    8.553
"Line.L77",   1,    10.7864,    3.595,    1.798,    4.06915,    37.72,    5.43334,    50.37,       16.3,    65.22
"Line.L77",   2,    10.7878,        0,        0,    4.06975,    37.73,    5.43339,    50.37,       16.3,    65.25
"Line.L78",   1,    8.49555,    2.832,    1.416,    1.17698,    13.85,    1.91631,    22.56,    5.74893,     35.6
"Line.L78",   2,    8.49588,        0,        0,    1.17697,    13.85,    1.91631,    22.56,    5.74893,    35.59
"Line.L79",   1,    1.52029,   0.5068,   0.2534,    1.52106,    100.1,    1.52094,      100,    4.56283,    199.8
"Line.L79",   2,    1.52092,        0,        0,    1.52092,      100,    1.52092,      100,    4.56283,      200
"Line.L80",   1,    6.97987,    2.327,    1.163,    1.77663,    25.45,    1.88463,       27,    5.65388,    51.58
"Line.L80",   2,    6.98145,        0,        0,    1.77685,    25.45,    1.88466,       27,    5.65388,    51.58
"Line.L81",   1,    5.15331,    1.718,   0.8589,    2.84784,    55.26,    3.28004,    63.65,    9.84011,    105.2
"Line.L81",   2,     5.1539,        0,        0,    2.84786,    55.26,    3.28004,    63.64,    9.84011,    105.2
"Line.L82",   1,      2.509,   0.8363,   0.4182,    1.29728,     51.7,    1.53186,    61.05,    4.59559,    99.86
"Line.L82",   2,    2.50978,        0,        0,    1.29714,    51.68,    1.53184,    61.03,    4.59559,    99.93
"Line.L83",   1,          0,        0,        0,          0,        0,          0,        0,    7.94942,        0
"Line.L83",   2,          0,        0,        0,          0,        0,          0,        0,    7.94942,        0
"Line.L84",   1,   0.883008,   0.2943,   0.1472,   0.883832,    100.1,   0.883904,    100.1,    2.65171,    199.6
"Line.L84",   2,    0.88392,        0,        0,    0.88392,      100,    0.88392,      100,    2.65171,      200
