Element, Terminal,  I1, %Normal, %Emergency, I2, %I2/I1, I0, %I0/I1, Iresidual, %NEMA
"Vsource.SOURCE",   1,    2252.33,        0,        0,    2195.67,    97.48,    2169.09,     96.3,    6507.28,    190.6
"Vsource.SOURCE",   2,    2252.33,        0,        0,    2195.67,    97.48,    2169.09,     96.3,    6507.28,    190.6
"Transformer.REG1A",   1,    2252.33,    294.8,    216.2,    2195.67,    97.48,    2169.09,     96.3, 8.08647E-009,    190.6
"Transformer.REG1A",   2,    2047.57,        0,        0,    1996.06,    97.48,     1971.9,     96.3, 8.08647E-009,    190.6
"Line.L115",   1,    2047.57,    341.3,    341.3,    1996.06,    97.48,     1971.9,     96.3,     5915.7,    190.6
"Line.L115",   2,    2047.58,        0,        0,    1996.06,    97.48,     1971.9,     96.3,     5915.7,    190.6
"Line.L1",   1,          0,        0,        0,          0,        0,          0,        0,    3.15961,        0
"Line.L1",   2,          0,        0,        0,          0,        0,          0,        0,    3.15961,        0
"Line.L2",   1,          0,        0,        0,          0,        0,          0,        0,    16.4119,        0
"Line.L2",   2,          0,        0,        0,          0,        0,          0,        0,    16.4119,        0
"Line.L3",   1,    2040.68,    340.1,    340.1,    1994.85,    97.75,    1975.12,    96.79,    5925.36,    190.7
"Line.L3",   2,    2040.69,        0,        0,    1994.85,    97.75,    1975.12,    96.79,    5925.36,    190.7
"Line.L4",   1,          0,        0,        0,          0,        0,          0,        0,    6.24731,        0
"Line.L4",   2,          0,        0,        0,          0,        0,          0,        0,    6.24731,        0
"Line.L5",   1,          0,        0,        0,          0,        0,          0,        0,    10.1653,        0
"Line.L5",   2,          0,        0,        0,          0,        0,          0,        0,    10.1653,        0
"Line.L6",   1,          0,        0,        0,          0,        0,          0,        0,    6.88647,        0
"Line.L6",   2,          0,        0,        0,          0,        0,          0,        0,    6.88647,        0
"Line.L7",   1,    2039.81,      340,      340,    1993.96,    97.75,    1974.22,    96.78,    5922.67,    190.7
"Line.L7",   2,    2039.81,        0,        0,    1993.96,    97.75,    1974.22,    96.78,    5922.67,    190.7
"Line.L8",   1,          0,        0,        0,          0,        0,          0,        0,     3.2386,        0
"Line.L8",   2,          0,        0,        0,          0,        0,          0,        0,     3.2386,        0
"Line.L9",   1,          0,        0,        0,          0,        0,          0,        0,    16.5711,        0
"Line.L9",   2,          0,        0,        0,          0,        0,          0,        0,    16.5711,        0
"Line.L10",   1,    2034.37,    339.1,    339.1,    1990.23,    97.83,    1969.54,    96.81,    5908.63,    190.7
"Line.L10",   2,    2034.37,        0,        0,    1990.23,    97.83,    1969.54,    96.81,    5908.63,    190.7
"Line.L11",   1,          0,        0,        0,          0,        0,          0,        0,    9.38304,        0
"Line.L11",   2,          0,        0,        0,          0,        0,          0,        0,    9.38304,        0
"Line.L12",   1,          0,        0,        0,          0,        0,          0,        0,    16.5585,        0
"Line.L12",   2,          0,        0,        0,          0,        0,          0,        0,    16.5585,        0
"Line.L13",   1,    60.5693,    20.19,    10.09,    8.53414,    14.09,    2.62764,    4.338,    7.88291,    17.71
"Line.L13",   2,    60.5734,        0,        0,    8.53376,    14.09,     2.6271,    4.337,    7.88291,     17.7
"Line.L14",   1,          0,        0,        0,          0,        0,          0,        0,    6.27927,        0
"Line.L14",   2,          0,        0,        0,          0,        0,          0,        0,    6.27927,        0
"Line.L15",   1,          0,        0,        0,          0,        0,          0,        0,    3.10495,        0
"Line.L15",   2,          0,        0,        0,          0,        0,          0,        0,    3.10495,        0
"Line.L16",   1,          0,        0,        0,          0,        0,          0,        0,    6.36208,        0
"Line.L16",   2,          0,        0,        0,          0,        0,          0,        0,    6.36208,        0
"Line.L17",   1,          0,        0,        0,          0,        0,          0,        0,     3.1807,        0
"Line.L17",   2,          0,        0,        0,          0,        0,          0,        0,     3.1807,        0
"Line.L18",   1,          0,        0,        0,          0,        0,          0,        0,    11.7304,        0
"Line.L18",   2,          0,        0,        0,          0,        0,          0,        0,    11.7304,        0
"Line.L19",   1,    14.4656,    4.822,    2.411,    4.11619,    28.45,    3.14666,    21.75,    9.43997,    50.05
"Line.L19",   2,    14.4669,        0,        0,    4.11634,    28.45,    3.14673,    21.75,    9.43997,    50.05
"Line.L20",   1,          0,        0,        0,          0,        0,          0,        0,    5.72678,        0
"Line.L20",   2,          0,        0,        0,          0,        0,          0,        0,    5.72678,        0
"Line.L21",   1,          0,        0,        0,          0,        0,          0,        0,    7.24243,        0
"Line.L21",   2,          0,        0,        0,          0,        0,          0,        0,    7.24243,        0
"Line.L22",   1,    12.0592,     4.02,     2.01,    6.52098,    54.07,    5.54416,    45.97,    16.6325,    99.87
"Line.L22",   2,    12.0602,        0,        0,    6.52111,    54.07,    5.54422,    45.97,    16.6325,    99.89
"Line.L23",   1,          0,        0,        0,          0,        0,          0,        0,     6.3564,        0
"Line.L23",   2,          0,        0,        0,          0,        0,          0,        0,     6.3564,        0
"Line.L24",   1,     9.9441,    3.315,    1.657,    5.64856,     56.8,    4.92282,     49.5,    14.7685,    99.87
"Line.L24",   2,    9.94527,        0,        0,    5.64863,     56.8,     4.9228,     49.5,    14.7685,     99.9
"Line.L25",   1,          0,        0,        0,          0,        0,          0,        0,    5.63706,        0
"Line.L25",   2,          0,        0,        0,          0,        0,          0,        0,    5.63706,        0
"Line.L26",   1,    5.83991,    1.947,   0.9733,    3.43721,    58.86,    3.04368,    52.12,    9.13103,    99.83
"Line.L26",   2,    5.84077,        0,        0,    3.43725,    58.85,    3.04364,    52.11,    9.13103,    99.86
"Line.L27",   1,          0,        0,        0,          0,        0,          0,        0,    6.20856,        0
"Line.L27",   2,          0,        0,        0,          0,        0,          0,        0,    6.20856,        0
"Line.L28",   1,          0,        0,        0,          0,        0,          0,        0,    6.07203,        0
"Line.L28",   2,          0,        0,        0,          0,        0,          0,        0,    6.07203,        0
"Line.L29",   1,          0,        0,        0,          0,        0,          0,        0,    6.20997,        0
"Line.L29",   2,          0,        0,        0,          0,        0,          0,        0,    6.20997,        0
"Line.L30",   1,    3.93328,    1.311,   0.6555,    2.14184,    54.45,    1.82805,    46.48,    5.48416,    99.79
"Line.L30",   2,    3.93452,        0,        0,    2.14202,    54.44,    1.82815,    46.46,    5.48416,    99.86
"Line.L31",   1,     2.1172,   0.7057,   0.3529,     2.1188,    100.1,    2.11884,    100.1,    6.35651,    199.5
"Line.L31",   2,    2.11851,        0,        0,    2.11909,      100,     2.1191,      100,    6.35651,    199.8
"Line.L32",   1, 0.00198912, 0.000663, 0.0003315, 0.000167926,    8.442, 0.000155732,    7.829, 0.000467196,    4.599
"Line.L32",   2, 6.78356E-012,        0,        0, 2.03173E-011,    299.5, 1.62695E-011,    239.8, 0.000467196,    22.52
"Line.L33",   1,          0,        0,        0,          0,        0,          0,        0,    3.03598,        0
"Line.L33",   2,          0,        0,        0,          0,        0,          0,        0,    3.03598,        0
"Line.L34",   1,          0,        0,        0,          0,        0,          0,        0,    9.54248,        0
"Line.L34",   2,          0,        0,        0,          0,        0,          0,        0,    9.54248,        0
"Line.L35",   1,          0,        0,        0,          0,        0,          0,        0,    6.02877,        0
"Line.L35",   2,          0,        0,        0,          0,        0,          0,        0,    6.02877,        0
"Line.L36",   1,    36.2405,    12.08,     6.04,    1.41782,    3.912,    3.46847,    9.571,    10.4054,    11.06
"Line.L36",   2,    36.2419,        0,        0,     1.4181,    3.913,    3.46845,     9.57,    10.4054,    11.06
"Line.L37",   1,          0,        0,        0,          0,        0,          0,        0,    5.46342,        0
"Line.L37",   2,          0,        0,        0,          0,        0,          0,        0,    5.46342,        0
"Line.L38",   1,          0,        0,        0,          0,        0,          0,        0,    6.73107,        0
"Line.L38",   2,          0,        0,        0,          0,        0,          0,        0,    6.73107,        0
"Line.L39",   1,          0,        0,        0,          0,        0,          0,        0,    3.28323,        0
"Line.L39",   2,          0,        0,        0,          0,        0,          0,        0,    3.28323,        0
"Line.L40",   1,          0,        0,        0,          0,        0,          0,        0,    3.17838,        0
"Line.L40",   2,          0,        0,        0,          0,        0,          0,        0,    3.17838,        0
"Line.L41",   1,    35.2012,    11.73,    5.867,    2.47455,     7.03,    3.41632,    9.705,     10.249,    14.38
"Line.L41",   2,    35.2026,        0,        0,    2.47483,     7.03,    3.41625,    9.705,     10.249,    14.38
"Line.L42",   1,          0,        0,        0,          0,        0,          0,        0,    7.23823,        0
"Line.L42",   2,          0,        0,        0,          0,        0,          0,        0,    7.23823,        0
"Line.L43",   1,    31.8006,     10.6,      5.3,    1.05581,     3.32,    2.29929,     7.23,    6.89787,    4.143
"Line.L43",   2,    31.8017,        0,        0,    1.05601,    3.321,    2.29931,     7.23,    6.89787,    4.142
"Line.L44",   1,          0,        0,        0,          0,        0,          0,        0,    5.86078,        0
"Line.L44",   2,          0,        0,        0,          0,        0,          0,        0,    5.86078,        0
"Line.L45",   1,    29.8598,    9.953,    4.977,   0.929729,    3.114,    4.24853,    14.23,    12.7456,    17.36
"Line.L45",   2,    29.8612,        0,        0,   0.929553,    3.113,    4.24856,    14.23,    12.7456,    17.36
"Line.L46",   1,          0,        0,        0,          0,        0,          0,        0,     2.9991,        0
"Line.L46",   2,          0,        0,        0,          0,        0,          0,        0,     2.9991,        0
"Line.L47",   1,    12.6194,    4.206,    2.103,   0.563839,    4.468,    1.56951,    12.44,    4.70854,    16.86
"Line.L47",   2,    12.6201,        0,        0,   0.564242,    4.471,    1.56966,    12.44,    4.70854,    16.86
"Line.L48",   1,    11.0782,    3.693,    1.846,    0.26463,    2.389,    2.09664,    18.93,    6.28992,    21.56
"Line.L48",   2,    11.0794,        0,        0,    0.26532,    2.395,     2.0969,    18.93,    6.28992,    21.56
"Line.L49",   1,     3.1125,    1.037,   0.5187,    1.93067,    62.03,    1.74391,    56.03,    5.23172,    103.6
"Line.L49",   2,    3.11335,        0,        0,    1.93019,       62,    1.74384,    56.01,    5.23172,    103.6
"Line.L50",   1,   0.996948,   0.3323,   0.1662,    1.00171,    100.5,    1.00064,    100.4,    3.00193,    198.4
"Line.L50",   2,   0.997928,        0,        0,    1.00111,    100.3,     1.0004,    100.2,    3.00193,    198.9
"Line.L51",   1, 0.00443054, 0.001477, 0.0007384, 0.00150028,    33.86, 0.000538319,    12.15, 0.00161496,    28.62
"Line.L51",   2, 1.02575E-007,        0,        0, 5.0069E-008,    48.81, 4.57559E-008,    44.61, 0.00161496,    93.11
"Line.L52",   1,    1977.31,    494.3,    329.6,    1981.79,    100.2,    1970.67,    99.66,    5912.02,    189.2
"Line.L52",   2,    1977.31,        0,        0,    1981.79,    100.2,    1970.67,    99.66,    5912.02,    189.2
"Line.L53",   1,    1975.88,      494,    329.3,     1980.3,    100.2,    1969.19,    99.66,    5907.58,    189.2
"Line.L53",   2,    1975.88,        0,        0,     1980.3,    100.2,    1969.19,    99.66,    5907.58,    189.2
"Line.L54",   1,    1.90973,   0.6366,   0.3183,    1.03687,    54.29,   0.974365,    51.02,    2.92309,    99.72
"Line.L54",   2,    1.91111,        0,        0,     1.0372,    54.27,   0.974106,    50.97,    2.92309,    99.86
"Line.L55",   1,    1974.27,    658.1,      329,     1980.6,    100.3,    1968.56,    99.71,    5905.67,    189.1
"Line.L55",   2,    1974.28,        0,        0,     1980.6,    100.3,    1968.56,    99.71,    5905.67,    189.1
"Line.L56",   1,    1.13472,   0.3782,   0.1891,    1.13596,    100.1,    1.13629,    100.1,    3.40886,    199.6
"Line.L56",   2,    1.13614,        0,        0,    1.13614,      100,    1.13614,      100,    3.40886,      200
"Line.L57",   1,          0,        0,        0,          0,        0,          0,        0,    7.07449,        0
"Line.L57",   2,          0,        0,        0,          0,        0,          0,        0,    7.07449,        0
"Line.L58",   1,    1972.25,    657.4,    328.7,    1982.59,    100.5,    1968.65,    99.82,    5905.95,    188.9
"Line.L58",   2,    1972.26,        0,        0,    1982.59,    100.5,    1968.65,    99.82,    5905.95,    188.9
"Line.L59",   1,          0,        0,        0,          0,        0,          0,        0,    3.45089,        0
"Line.L59",   2,          0,        0,        0,          0,        0,          0,        0,    3.45089,        0
"Line.L60",   1, 0.00509931,   0.0017, 0.0008499, 0.000314777,    6.173, 0.000856417,    16.79, 0.00256925,    18.28
"Line.L60",   2, 4.59899E-006,        0,        0, 5.53566E-007,    12.04, 7.38008E-007,    16.05, 0.00256925,    28.01
"Line.L61",   1,    19.8031,    6.601,    3.301,    4.97218,    25.11,    5.87382,    29.66,    17.6215,    43.23
"Line.L61",   2,    19.8139,        0,        0,    4.97112,    25.09,    5.87919,    29.67,    17.6215,    43.22
"Line.L62",   1,    17.4133,    5.804,    2.902,    2.75375,    15.81,    4.27451,    24.55,    12.8235,       35
"Line.L62",   2,    17.4212,        0,        0,    2.75353,    15.81,    4.27668,    24.55,    12.8235,       35
"Line.L63",   1,    16.2479,    5.416,    2.708,    3.72801,    22.94,    5.41467,    33.33,     16.244,    51.23
"Line.L63",   2,    16.2638,        0,        0,    3.72833,    22.92,    5.41959,    33.32,     16.244,     51.2
"Line.L64",   1,    11.6739,    3.891,    1.946,    5.83605,    49.99,    4.10156,    35.13,    12.3047,    79.86
"Line.L64",   2,    11.6928,        0,        0,    5.83274,    49.88,    4.11417,    35.19,    12.3047,    79.77
"Line.L65",   1,    4.11622,    1.372,    0.686,     4.1262,    100.2,    4.11417,    99.95,    12.3425,    198.7
"Line.L65",   2,    4.12381,        0,        0,    4.12381,      100,    4.12381,      100,    12.3425,      200
"Line.L66",   1,          0,        0,        0,          0,        0,          0,        0,    10.4906,        0
"Line.L66",   2,          0,        0,        0,          0,        0,          0,        0,    10.4906,        0
"Line.L67",   1,    165.774,    55.26,    27.63,    3.55539,    2.145,    10.8499,    6.545,    32.5496,    6.942
"Line.L67",   2,    165.775,        0,        0,    3.55577,    2.145,      10.85,    6.545,    32.5496,    6.942
"Line.L68",   1,    1819.78,    606.6,    303.3,    1805.07,    99.19,    1800.62,    98.95,    5401.86,    197.7
"Line.L68",   2,    1819.78,        0,        0,    1805.07,    99.19,    1800.62,    98.95,    5401.86,    197.7
"Line.L69",   1,          0,        0,        0,          0,        0,          0,        0,    8.74167,        0
"Line.L69",   2,          0,        0,        0,          0,        0,          0,        0,    8.74167,        0
"Line.L70",   1,          0,        0,        0,          0,        0,          0,        0,    5.24438,        0
"Line.L70",   2,          0,        0,        0,          0,        0,          0,        0,    5.24438,        0
"Line.L71",   1,          0,        0,        0,          0,        0,          0,        0,    3.49633,        0
"Line.L71",   2,          0,        0,        0,          0,        0,          0,        0,    3.49633,        0
"Line.L72",   1,          0,        0,        0,          0,        0,          0,        0,    18.8935,        0
"Line.L72",   2,          0,        0,        0,          0,        0,          0,        0,    18.8935,        0
"Line.L73",   1,     171.39,    57.13,    28.57,    6.45125,    3.764,    8.61996,    5.029,    25.8599,    4.691
"Line.L73",   2,    171.391,        0,        0,    6.45156,    3.764,    8.61997,    5.029,    25.8599,    4.691
"Line.L74",   1,          0,        0,        0,          0,        0,          0,        0,    12.8026,        0
"Line.L74",   2,          0,        0,        0,          0,        0,          0,        0,    12.8026,        0
"Line.L75",   1,          0,        0,        0,          0,        0,          0,        0,    6.08874,        0
"Line.L75",   2,          0,        0,        0,          0,        0,          0,        0,    6.08874,        0
"Line.L76",   1,    10.5442,    3.515,    1.757,   0.667806,    6.333,    3.07536,    29.17,    9.22608,    35.13
"Line.L76",   2,    10.5457,        0,        0,   0.668281,    6.337,    3.07567,    29.16,    9.22608,    35.13
"Line.L77",   1,    189.466,    63.16,    31.58,    5.05283,    2.667,    6.05406,    3.195,    18.1622,     4.18
"Line.L77",   2,    189.467,        0,        0,    5.05395,    2.667,    6.05391,    3.195,    18.1622,     4.18
"Line.L78",   1,     8.4119,    2.804,    1.402,      2.126,    25.27,    2.00706,    23.86,    6.02117,    42.89
"Line.L78",   2,    8.41224,        0,        0,    2.12598,    25.27,    2.00719,    23.86,    6.02117,    42.89
"Line.L79",   1,    1.14148,   0.3805,   0.1902,     1.1428,    100.1,    1.14276,    100.1,    3.42828,    199.6
"Line.L79",   2,    1.14252,        0,        0,    1.14252,      100,    1.14252,      100,    3.42828,      200
"Line.L80",   1,    7.28452,    2.428,    1.214,    2.21032,    30.34,    3.07702,    42.24,    9.23106,    65.01
"Line.L80",   2,     7.2861,        0,        0,    2.21052,    30.34,    3.07763,    42.24,    9.23106,    64.99
"Line.L81",   1,    5.18131,    1.727,   0.8636,    3.98237,    76.86,    3.28771,    63.45,    9.86313,    132.9
"Line.L81",   2,    5.18179,        0,        0,    3.98235,    76.85,    3.28794,    63.45,    9.86313,      133
"Line.L82",   1,    2.15458,   0.7182,   0.3591,    1.37712,    63.92,   0.797134,       37,     2.3914,    99.79
"Line.L82",   2,    2.15545,        0,        0,    1.37691,    63.88,   0.797173,    36.98,     2.3914,     99.9
"Line.L83",   1,          0,        0,        0,          0,        0,          0,        0,    9.13352,        0
"Line.L83",   2,          0,        0,        0,          0,        0,          0,        0,    9.13352,        0
"Line.L84",   1,    1.01501,   0.3383,   0.1692,    1.01547,      100,     1.0152,      100,    3.04559,    199.6
"Line.L84",   2,    1.01554,        0,        0,    1.01554,      100,    1.01554,      100,    3.04559,      200
