Element, Terminal,  I1, %Normal, %Emergency, I2, %I2/I1, I0, %I0/I1, Iresidual, %NEMA
"Vsource.SOURCE",   1,    17021.9,        0,        0,    1061.43,    6.236,    137.742,   0.8092,    413.225,     5.25
"Vsource.SOURCE",   2,    17021.9,        0,        0,    1061.43,    6.236,    137.742,   0.8092,    413.225,     5.25
"Transformer.REG1A",   1,    17021.9,     2228,     1634,    1061.43,    6.236,    137.742,   0.8092, 2.91038E-009,     5.25
"Transformer.REG1A",   2,    15474.5,        0,        0,    964.933,    6.236,     125.22,   0.8092, 2.91038E-009,     5.25
"Line.L115",   1,    15474.5,     2579,     2579,    964.933,    6.236,     125.22,   0.8092,    375.659,     5.25
"Line.L115",   2,    15474.5,        0,        0,    964.933,    6.236,     125.22,   0.8092,    375.659,     5.25
"Line.L1",   1,          0,        0,        0,          0,        0,          0,        0,    3.11681,        0
"Line.L1",   2,          0,        0,        0,          0,        0,          0,        0,    3.11681,        0
"Line.L2",   1,          0,        0,        0,          0,        0,          0,        0,    15.5252,        0
"Line.L2",   2,          0,        0,        0,          0,        0,          0,        0,    15.5252,        0
"Line.L3",   1,    15467.8,     2578,     2578,    964.776,    6.237,    124.845,   0.8071,    374.535,    5.264
"Line.L3",   2,    15467.8,        0,        0,    964.776,    6.237,    124.845,   0.8071,    374.535,    5.264
"Line.L4",   1,          0,        0,        0,          0,        0,          0,        0,    6.27953,        0
"Line.L4",   2,          0,        0,        0,          0,        0,          0,        0,    6.27953,        0
"Line.L5",   1,          0,        0,        0,          0,        0,          0,        0,     9.2464,        0
"Line.L5",   2,          0,        0,        0,          0,        0,          0,        0,     9.2464,        0
"Line.L6",   1,          0,        0,        0,          0,        0,          0,        0,    6.14164,        0
"Line.L6",   2,          0,        0,        0,          0,        0,          0,        0,    6.14164,        0
"Line.L7",   1,      15467,     2578,     2578,    963.839,    6.232,    125.836,   0.8136,    377.508,    5.254
"Line.L7",   2,      15467,        0,        0,    963.839,    6.232,    125.836,   0.8136,    377.508,    5.254
"Line.L8",   1,          0,        0,        0,          0,        0,          0,        0,    2.95324,        0
"Line.L8",   2,          0,        0,        0,          0,        0,          0,        0,    2.95324,        0
"Line.L9",   1,          0,        0,        0,          0,        0,          0,        0,    14.8759,        0
"Line.L9",   2,          0,        0,        0,          0,        0,          0,        0,    14.8759,        0
"Line.L10",   1,    15462.3,     2577,     2577,    959.957,    6.208,    130.144,   0.8417,    390.433,     5.21
"Line.L10",   2,    15462.3,        0,        0,    959.957,    6.208,    130.144,   0.8417,    390.433,     5.21
"Line.L11",   1,          0,        0,        0,          0,        0,          0,        0,    8.50398,        0
"Line.L11",   2,          0,        0,        0,          0,        0,          0,        0,    8.50398,        0
"Line.L12",   1,          0,        0,        0,          0,        0,          0,        0,    12.5308,        0
"Line.L12",   2,          0,        0,        0,          0,        0,          0,        0,    12.5308,        0
"Line.L13",   1,    15382.4,     5127,     2564,    955.867,    6.214,     133.27,   0.8664,    399.811,    5.212
"Line.L13",   2,    15382.4,        0,        0,    955.867,    6.214,     133.27,   0.8664,    399.811,    5.212
"Line.L14",   1,          0,        0,        0,          0,        0,          0,        0,    5.57854,        0
"Line.L14",   2,          0,        0,        0,          0,        0,          0,        0,    5.57854,        0
"Line.L15",   1,          0,        0,        0,          0,        0,          0,        0,    2.92649,        0
"Line.L15",   2,          0,        0,        0,          0,        0,          0,        0,    2.92649,        0
"Line.L16",   1,          0,        0,        0,          0,        0,          0,        0,    5.16498,        0
"Line.L16",   2,          0,        0,        0,          0,        0,          0,        0,    5.16498,        0
"Line.L17",   1,          0,        0,        0,          0,        0,          0,        0,    2.58233,        0
"Line.L17",   2,          0,        0,        0,          0,        0,          0,        0,    2.58233,        0
"Line.L18",   1,          0,        0,        0,          0,        0,          0,        0,    6.23781,        0
"Line.L18",   2,          0,        0,        0,          0,        0,          0,        0,    6.23781,        0
"Line.L19",   1,    15362.3,     5121,     2560,    954.301,    6.212,    135.526,   0.8822,    406.577,      5.2
"Line.L19",   2,    15362.3,        0,        0,    954.301,    6.212,    135.526,   0.8822,    406.577,      5.2
"Line.L20",   1,          0,        0,        0,          0,        0,          0,        0,      3.118,        0
"Line.L20",   2,          0,        0,        0,          0,        0,          0,        0,      3.118,        0
"Line.L21",   1,          0,        0,        0,          0,        0,          0,        0,    2.86013,        0
"Line.L21",   2,          0,        0,        0,          0,        0,          0,        0,    2.86013,        0
"Line.L22",   1,    15361.6,     5121,     2560,    955.026,    6.217,    134.921,   0.8783,    404.763,    5.204
"Line.L22",   2,    15361.6,        0,        0,    955.026,    6.217,    134.921,   0.8783,    404.763,    5.204
"Line.L23",   1,          0,        0,        0,          0,        0,          0,        0,    2.34614,        0
"Line.L23",   2,          0,        0,        0,          0,        0,          0,        0,    2.34614,        0
"Line.L24",   1,    15360.9,     5120,     2560,    955.217,    6.218,    134.692,   0.8769,    404.077,    5.209
"Line.L24",   2,    15360.9,        0,        0,    955.217,    6.218,    134.692,   0.8769,    404.077,    5.209
"Line.L25",   1,          0,        0,        0,          0,        0,          0,        0,    2.17503,        0
"Line.L25",   2,          0,        0,        0,          0,        0,          0,        0,    2.17503,        0
"Line.L26",   1,    15359.8,     5120,     2560,    954.748,    6.216,    135.176,   0.8801,    405.527,    5.207
"Line.L26",   2,    15359.8,        0,        0,    954.748,    6.216,    135.176,   0.8801,    405.527,    5.207
"Line.L27",   1,          0,        0,        0,          0,        0,          0,        0,    1.91941,        0
"Line.L27",   2,          0,        0,        0,          0,        0,          0,        0,    1.91941,        0
"Line.L28",   1,          0,        0,        0,          0,        0,          0,        0,    2.04523,        0
"Line.L28",   2,          0,        0,        0,          0,        0,          0,        0,    2.04523,        0
"Line.L29",   1,          0,        0,        0,          0,        0,          0,        0,    1.91995,        0
"Line.L29",   2,          0,        0,        0,          0,        0,          0,        0,    1.91995,        0
"Line.L30",   1,    15359.4,     5120,     2560,    954.312,    6.213,    135.643,   0.8831,     406.93,    5.202
"Line.L30",   2,    15359.4,        0,        0,    954.312,    6.213,    135.643,   0.8831,     406.93,    5.202
"Line.L31",   1,    15359.2,     5120,     2560,     954.03,    6.211,    135.946,   0.8851,    407.838,    5.199
"Line.L31",   2,    15359.2,        0,        0,     954.03,    6.211,    135.946,   0.8851,    407.838,    5.199
"Line.L32",   1,    15359.1,     5120,     2560,    954.059,    6.212,    135.913,   0.8849,    407.738,      5.2
"Line.L32",   2,    15359.1,        0,        0,    954.059,    6.212,    135.913,   0.8849,    407.738,      5.2
"Line.L33",   1,          0,        0,        0,          0,        0,          0,        0,    1.02256,        0
"Line.L33",   2,          0,        0,        0,          0,        0,          0,        0,    1.02256,        0
"Line.L34",   1,          0,        0,        0,          0,        0,          0,        0,     7.7471,        0
"Line.L34",   2,          0,        0,        0,          0,        0,          0,        0,     7.7471,        0
"Line.L35",   1,          0,        0,        0,          0,        0,          0,        0,    3.15628,        0
"Line.L35",   2,          0,        0,        0,          0,        0,          0,        0,    3.15628,        0
"Line.L36",   1,    18.5491,    6.183,    3.092,    1.24941,    6.736,   0.129074,   0.6958,   0.387222,    7.131
"Line.L36",   2,    18.5498,        0,        0,    1.24951,    6.736,   0.129033,   0.6956,   0.387222,    7.131
"Line.L37",   1,          0,        0,        0,          0,        0,          0,        0,    3.11599,        0
"Line.L37",   2,          0,        0,        0,          0,        0,          0,        0,    3.11599,        0
"Line.L38",   1,          0,        0,        0,          0,        0,          0,        0,    3.45456,        0
"Line.L38",   2,          0,        0,        0,          0,        0,          0,        0,    3.45456,        0
"Line.L39",   1,          0,        0,        0,          0,        0,          0,        0,    1.73592,        0
"Line.L39",   2,          0,        0,        0,          0,        0,          0,        0,    1.73592,        0
"Line.L40",   1,          0,        0,        0,          0,        0,          0,        0,    1.68422,        0
"Line.L40",   2,          0,        0,        0,          0,        0,          0,        0,    1.68422,        0
"Line.L41",   1,    17.9891,    5.996,    2.998,    1.70473,    9.476,   0.619293,    3.443,    1.85788,    11.34
"Line.L41",   2,    17.9898,        0,        0,    1.70487,    9.477,   0.619276,    3.442,    1.85788,    11.34
"Line.L42",   1,          0,        0,        0,          0,        0,          0,        0,    3.40312,        0
"Line.L42",   2,          0,        0,        0,          0,        0,          0,        0,    3.40312,        0
"Line.L43",   1,    16.3517,    5.451,    2.725,   0.711298,     4.35,   0.415999,    2.544,      1.248,    2.464
"Line.L43",   2,    16.3523,        0,        0,   0.711421,    4.351,    0.41603,    2.544,      1.248,    2.464
"Line.L44",   1,          0,        0,        0,          0,        0,          0,        0,     3.1163,        0
"Line.L44",   2,          0,        0,        0,          0,        0,          0,        0,     3.1163,        0
"Line.L45",   1,    15.3311,     5.11,    2.555,    1.08703,     7.09,   0.882527,    5.756,    2.64758,    11.81
"Line.L45",   2,    15.3319,        0,        0,    1.08698,     7.09,   0.882506,    5.756,    2.64758,    11.81
"Line.L46",   1,          0,        0,        0,          0,        0,          0,        0,    1.55833,        0
"Line.L46",   2,          0,        0,        0,          0,        0,          0,        0,    1.55833,        0
"Line.L47",   1,    6.30179,    2.101,     1.05,     0.3502,    5.557,   0.123734,    1.963,   0.371203,    5.004
"Line.L47",   2,    6.30217,        0,        0,   0.350407,     5.56,    0.12367,    1.962,   0.371203,    5.008
"Line.L48",   1,    5.86625,    1.955,   0.9777,   0.570829,    9.731,   0.794247,    13.54,    2.38274,    22.62
"Line.L48",   2,    5.86683,        0,        0,   0.571166,    9.736,   0.794278,    13.54,    2.38274,    22.63
"Line.L49",   1,    1.63793,    0.546,    0.273,   0.915484,    55.89,    1.03238,    63.03,    3.09715,    104.9
"Line.L49",   2,    1.63843,        0,        0,   0.915288,    55.86,    1.03226,       63,    3.09715,    104.9
"Line.L50",   1,   0.518281,   0.1728,  0.08638,   0.520306,    100.4,   0.519717,    100.3,    1.55915,    198.5
"Line.L50",   2,   0.518701,        0,        0,   0.520053,    100.3,    0.51966,    100.2,    1.55915,      199
"Line.L51",   1, 0.00221443, 0.0007381, 0.0003691, 0.000696973,    31.47, 0.000258492,    11.67, 0.000775475,    21.51
"Line.L51",   2, 5.49208E-008,        0,        0, 2.86333E-008,    52.14, 2.96726E-008,    54.03, 0.000775475,    105.8
"Line.L52",   1,    93.4424,    23.36,    15.57,    5.21991,    5.586,    2.76666,    2.961,    8.29998,    7.866
"Line.L52",   2,    93.4431,        0,        0,    5.22013,    5.586,     2.7667,    2.961,    8.29998,    7.866
"Line.L53",   1,    91.8464,    22.96,    15.31,    3.80945,    4.148,    1.20773,    1.315,    3.62319,    4.523
"Line.L53",   2,    91.8468,        0,        0,    3.80959,    4.148,    1.20776,    1.315,    3.62319,    4.523
"Line.L54",   1,    1.63034,   0.5434,   0.2717,   0.858715,    52.67,   0.790243,    48.47,    2.37073,    99.78
"Line.L54",   2,    1.63118,        0,        0,   0.858983,    52.66,   0.790224,    48.44,    2.37073,    99.89
"Line.L55",   1,    90.2178,    30.07,    15.04,    3.12529,    3.464,    1.44403,    1.601,     4.3321,    3.929
"Line.L55",   2,    90.2189,        0,        0,    3.12526,    3.464,    1.44402,    1.601,     4.3321,    3.929
"Line.L56",   1,   0.884335,   0.2948,   0.1474,   0.885168,    100.1,   0.885278,    100.1,    2.65584,    199.6
"Line.L56",   2,   0.885217,        0,        0,   0.885217,      100,   0.885217,      100,    2.65584,      200
"Line.L57",   1,          0,        0,        0,          0,        0,          0,        0,    5.20095,        0
"Line.L57",   2,          0,        0,        0,          0,        0,          0,        0,    5.20095,        0
"Line.L58",   1,    88.4855,     29.5,    14.75,    3.63606,    4.109,    3.17558,    3.589,    9.52675,    5.962
"Line.L58",   2,    88.4879,        0,        0,    3.63561,    4.109,    3.17554,    3.589,    9.52675,    5.961
"Line.L59",   1,          0,        0,        0,          0,        0,          0,        0,    2.65283,        0
"Line.L59",   2,          0,        0,        0,          0,        0,          0,        0,    2.65283,        0
"Line.L60",   1, 0.00392146, 0.001307, 0.0006536, 0.000450266,    11.48, 0.000122675,    3.128, 0.000368025,    8.837
"Line.L60",   2, 3.50435E-006,        0,        0, 2.76503E-007,     7.89, 1.28914E-007,    3.679, 0.000368025,    4.783
"Line.L61",   1,    15.3447,    5.115,    2.557,    3.35645,    21.87,    2.60161,    16.95,    7.80482,    36.45
"Line.L61",   2,    15.3533,        0,        0,    3.35563,    21.86,    2.60157,    16.94,    7.80482,    36.42
"Line.L62",   1,    13.7633,    4.588,    2.294,    1.81089,    13.16,    1.39162,    10.11,    4.17487,    19.73
"Line.L62",   2,    13.7694,        0,        0,    1.81038,    13.15,    1.39148,    10.11,    4.17487,    19.71
"Line.L63",   1,    12.1855,    4.062,    2.031,    3.25086,    26.68,    2.97983,    24.45,    8.93948,    47.11
"Line.L63",   2,     12.198,        0,        0,    3.25013,    26.64,    2.97951,    24.43,    8.93948,    47.03
"Line.L64",   1,    9.08364,    3.028,    1.514,    4.09638,     45.1,    3.17322,    34.93,    9.51965,    77.28
"Line.L64",   2,    9.09973,        0,        0,    4.09475,       45,    3.17339,    34.87,    9.51965,    77.08
"Line.L65",   1,    3.16287,    1.054,   0.5271,    3.17471,    100.4,    3.17339,    100.3,    9.52018,    198.6
"Line.L65",   2,    3.17353,        0,        0,    3.17353,      100,    3.17353,      100,    9.52018,      200
"Line.L66",   1,          0,        0,        0,          0,        0,          0,        0,    15.9897,        0
"Line.L66",   2,          0,        0,        0,          0,        0,          0,        0,    15.9897,        0
"Line.L67",   1,    40.2742,    13.42,    6.712,    2.61846,    6.502,    4.60477,    11.43,    13.8143,    16.17
"Line.L67",   2,    40.2751,        0,        0,    2.61878,    6.502,    4.60475,    11.43,    13.8143,    16.17
"Line.L68",   1,    20.1974,    6.732,    3.366,     1.2476,    6.177,    2.26257,     11.2,    6.78772,    15.92
"Line.L68",   2,    20.1983,        0,        0,    1.24745,    6.176,    2.26257,     11.2,    6.78772,    15.92
"Line.L69",   1,          0,        0,        0,          0,        0,          0,        0,    13.3239,        0
"Line.L69",   2,          0,        0,        0,          0,        0,          0,        0,    13.3239,        0
"Line.L70",   1,          0,        0,        0,          0,        0,          0,        0,    7.99343,        0
"Line.L70",   2,          0,        0,        0,          0,        0,          0,        0,    7.99343,        0
"Line.L71",   1,          0,        0,        0,          0,        0,          0,        0,    5.32905,        0
"Line.L71",   2,          0,        0,        0,          0,        0,          0,        0,    5.32905,        0
"Line.L72",   1,          0,        0,        0,          0,        0,          0,        0,    16.7012,        0
"Line.L72",   2,          0,        0,        0,          0,        0,          0,        0,    16.7012,        0
"Line.L73",   1,    34.7158,    11.57,    5.786,    6.56311,    18.91,    5.76275,     16.6,    17.2882,    30.91
"Line.L73",   2,    34.7165,        0,        0,    6.56329,    18.91,    5.76277,     16.6,    17.2882,    30.91
"Line.L74",   1,          0,        0,        0,          0,        0,          0,        0,    10.9703,        0
"Line.L74",   2,          0,        0,        0,          0,        0,          0,        0,    10.9703,        0
"Line.L75",   1,          0,        0,        0,          0,        0,          0,        0,     5.7284,        0
"Line.L75",   2,          0,        0,        0,          0,        0,          0,        0,     5.7284,        0
"Line.L76",   1,    11.1459,    3.715,    1.858,   0.773014,    6.935,   0.308222,    2.765,   0.924667,    8.175
"Line.L76",   2,    11.1472,        0,        0,   0.773252,    6.937,    0.30827,    2.765,   0.924667,    8.179
"Line.L77",   1,    11.6221,    3.874,    1.937,     4.3426,    37.37,     5.8524,    50.36,    17.5572,    64.46
"Line.L77",   2,    11.6237,        0,        0,    4.34317,    37.36,    5.85246,    50.35,    17.5572,    64.48
"Line.L78",   1,    9.18274,    3.061,     1.53,     1.3481,    14.68,    2.02546,    22.06,    6.07638,    35.96
"Line.L78",   2,    9.18309,        0,        0,    1.34809,    14.68,    2.02546,    22.06,    6.07638,    35.96
"Line.L79",   1,    1.63864,   0.5462,   0.2731,    1.63949,    100.1,    1.63936,      100,    4.91808,    199.8
"Line.L79",   2,    1.63933,        0,        0,    1.63933,      100,    1.63933,      100,    4.91808,      200
"Line.L80",   1,     7.5477,    2.516,    1.258,    1.91926,    25.43,    2.01941,    26.76,    6.05823,    51.54
"Line.L80",   2,    7.54939,        0,        0,    1.91951,    25.43,    2.01944,    26.75,    6.05823,    51.53
"Line.L81",   1,    5.58552,    1.862,   0.9309,    3.11065,    55.69,    3.50929,    62.83,    10.5279,    104.7
"Line.L81",   2,    5.58615,        0,        0,    3.11067,    55.69,    3.50929,    62.82,    10.5279,    104.7
"Line.L82",   1,    2.72666,   0.9089,   0.4544,    1.43308,    52.56,    1.64778,    60.43,    4.94333,    99.86
"Line.L82",   2,     2.7275,        0,        0,    1.43293,    52.54,    1.64775,    60.41,    4.94333,    99.93
"Line.L83",   1,          0,        0,        0,          0,        0,          0,        0,    8.58999,        0
"Line.L83",   2,          0,        0,        0,          0,        0,          0,        0,    8.58999,        0
"Line.L84",   1,   0.954182,   0.3181,    0.159,   0.955035,    100.1,   0.955127,    100.1,    2.86538,    199.6
"Line.L84",   2,   0.955145,        0,        0,   0.955145,      100,   0.955145,      100,    2.86538,      200
