Element, Terminal,  I1, %Normal, %Emergency, I2, %I2/I1, I0, %I0/I1, Iresidual, %NEMA
"Vsource.SOURCE",   1,    14346.4,        0,        0,    911.346,    6.352,    116.337,   0.8109,    349.011,    5.337
"Vsource.SOURCE",   2,    14346.4,        0,        0,    911.346,    6.352,    116.337,   0.8109,    349.011,    5.337
"Transformer.REG1A",   1,    14346.4,     1878,     1377,    911.346,    6.352,    116.337,   0.8109, 2.67755E-009,    5.337
"Transformer.REG1A",   2,    14169.3,        0,        0,    900.095,    6.352,    114.901,   0.8109, 2.67755E-009,    5.337
"Line.L115",   1,    14169.3,     2362,     2362,    900.095,    6.352,    114.901,   0.8109,    344.702,    5.337
"Line.L115",   2,    14169.3,        0,        0,    900.095,    6.352,    114.901,   0.8109,    344.702,    5.337
"Line.L1",   1,          0,        0,        0,          0,        0,          0,        0,    3.14472,        0
"Line.L1",   2,          0,        0,        0,          0,        0,          0,        0,    3.14472,        0
"Line.L2",   1,          0,        0,        0,          0,        0,          0,        0,    14.8658,        0
"Line.L2",   2,          0,        0,        0,          0,        0,          0,        0,    14.8658,        0
"Line.L3",   1,    14162.9,     2360,     2360,     899.98,    6.354,    114.548,   0.8088,    343.644,    5.351
"Line.L3",   2,    14162.9,        0,        0,     899.98,    6.354,    114.548,   0.8088,    343.644,    5.351
"Line.L4",   1,          0,        0,        0,          0,        0,          0,        0,    6.23988,        0
"Line.L4",   2,          0,        0,        0,          0,        0,          0,        0,    6.23988,        0
"Line.L5",   1,          0,        0,        0,          0,        0,          0,        0,    8.62657,        0
"Line.L5",   2,          0,        0,        0,          0,        0,          0,        0,    8.62657,        0
"Line.L6",   1,          0,        0,        0,          0,        0,          0,        0,    5.65672,        0
"Line.L6",   2,          0,        0,        0,          0,        0,          0,        0,    5.65672,        0
"Line.L7",   1,    14162.2,     2360,     2360,    899.125,    6.349,    115.452,   0.8152,    346.355,    5.341
"Line.L7",   2,    14162.2,        0,        0,    899.125,    6.349,    115.452,   0.8152,    346.355,    5.341
"Line.L8",   1,          0,        0,        0,          0,        0,          0,        0,    2.69405,        0
"Line.L8",   2,          0,        0,        0,          0,        0,          0,        0,    2.69405,        0
"Line.L9",   1,          0,        0,        0,          0,        0,          0,        0,    12.2344,        0
"Line.L9",   2,          0,        0,        0,          0,        0,          0,        0,    12.2344,        0
"Line.L10",   1,    14158.4,     2360,     2360,    896.002,    6.328,    118.932,     0.84,    356.796,    5.303
"Line.L10",   2,    14158.4,        0,        0,    896.002,    6.328,    118.932,     0.84,    356.796,    5.303
"Line.L11",   1,          0,        0,        0,          0,        0,          0,        0,    7.15028,        0
"Line.L11",   2,          0,        0,        0,          0,        0,          0,        0,    7.15028,        0
"Line.L12",   1,          0,        0,        0,          0,        0,          0,        0,     11.475,        0
"Line.L12",   2,          0,        0,        0,          0,        0,          0,        0,     11.475,        0
"Line.L13",   1,      14194,     4731,     2366,    892.574,    6.288,    121.543,   0.8563,     364.63,    5.296
"Line.L13",   2,      14194,        0,        0,    892.574,    6.288,    121.543,   0.8563,     364.63,    5.296
"Line.L14",   1,          0,        0,        0,          0,        0,          0,        0,    4.70818,        0
"Line.L14",   2,          0,        0,        0,          0,        0,          0,        0,    4.70818,        0
"Line.L15",   1,          0,        0,        0,          0,        0,          0,        0,    2.44298,        0
"Line.L15",   2,          0,        0,        0,          0,        0,          0,        0,    2.44298,        0
"Line.L16",   1,          0,        0,        0,          0,        0,          0,        0,     4.7088,        0
"Line.L16",   2,          0,        0,        0,          0,        0,          0,        0,     4.7088,        0
"Line.L17",   1,          0,        0,        0,          0,        0,          0,        0,    2.35425,        0
"Line.L17",   2,          0,        0,        0,          0,        0,          0,        0,    2.35425,        0
"Line.L18",   1,          0,        0,        0,          0,        0,          0,        0,    5.75849,        0
"Line.L18",   2,          0,        0,        0,          0,        0,          0,        0,    5.75849,        0
"Line.L19",   1,    14175.5,     4725,     2363,    891.077,    6.286,    123.678,   0.8725,    371.035,    5.282
"Line.L19",   2,    14175.5,        0,        0,    891.077,    6.286,    123.678,   0.8725,    371.035,    5.282
"Line.L20",   1,          0,        0,        0,          0,        0,          0,        0,    2.87906,        0
"Line.L20",   2,          0,        0,        0,          0,        0,          0,        0,    2.87906,        0
"Line.L21",   1,          0,        0,        0,          0,        0,          0,        0,    2.63751,        0
"Line.L21",   2,          0,        0,        0,          0,        0,          0,        0,    2.63751,        0
"Line.L22",   1,    14174.8,     4725,     2362,    891.748,    6.291,    123.118,   0.8686,    369.354,    5.287
"Line.L22",   2,    14174.8,        0,        0,    891.748,    6.291,    123.118,   0.8686,    369.354,    5.287
"Line.L23",   1,          0,        0,        0,          0,        0,          0,        0,    2.16395,        0
"Line.L23",   2,          0,        0,        0,          0,        0,          0,        0,    2.16395,        0
"Line.L24",   1,    14174.2,     4725,     2362,    891.921,    6.293,    122.909,   0.8671,    368.728,    5.292
"Line.L24",   2,    14174.2,        0,        0,    891.921,    6.293,    122.909,   0.8671,    368.728,    5.292
"Line.L25",   1,          0,        0,        0,          0,        0,          0,        0,    1.83626,        0
"Line.L25",   2,          0,        0,        0,          0,        0,          0,        0,    1.83626,        0
"Line.L26",   1,    14173.3,     4724,     2362,    891.558,     6.29,    123.284,   0.8698,    369.853,     5.29
"Line.L26",   2,    14173.3,        0,        0,    891.558,     6.29,    123.284,   0.8698,    369.853,     5.29
"Line.L27",   1,          0,        0,        0,          0,        0,          0,        0,    1.62195,        0
"Line.L27",   2,          0,        0,        0,          0,        0,          0,        0,    1.62195,        0
"Line.L28",   1,          0,        0,        0,          0,        0,          0,        0,    1.72564,        0
"Line.L28",   2,          0,        0,        0,          0,        0,          0,        0,    1.72564,        0
"Line.L29",   1,          0,        0,        0,          0,        0,          0,        0,     1.6224,        0
"Line.L29",   2,          0,        0,        0,          0,        0,          0,        0,     1.6224,        0
"Line.L30",   1,      14173,     4724,     2362,    891.155,    6.288,    123.716,   0.8729,    371.149,    5.285
"Line.L30",   2,      14173,        0,        0,    891.155,    6.288,    123.716,   0.8729,    371.149,    5.285
"Line.L31",   1,    14172.8,     4724,     2362,    890.895,    6.286,    123.996,   0.8749,    371.987,    5.282
"Line.L31",   2,    14172.8,        0,        0,    890.895,    6.286,    123.996,   0.8749,    371.987,    5.282
"Line.L32",   1,    14172.7,     4724,     2362,    890.922,    6.286,    123.965,   0.8747,    371.895,    5.283
"Line.L32",   2,    14172.7,        0,        0,    890.922,    6.286,    123.965,   0.8747,    371.895,    5.283
"Line.L33",   1,          0,        0,        0,          0,        0,          0,        0,   0.862772,        0
"Line.L33",   2,          0,        0,        0,          0,        0,          0,        0,   0.862772,        0
"Line.L34",   1,          0,        0,        0,          0,        0,          0,        0,    7.06286,        0
"Line.L34",   2,          0,        0,        0,          0,        0,          0,        0,    7.06286,        0
"Line.L35",   1,          0,        0,        0,          0,        0,          0,        0,    2.88817,        0
"Line.L35",   2,          0,        0,        0,          0,        0,          0,        0,    2.88817,        0
"Line.L36",   1,    17.0269,    5.676,    2.838,    1.13871,    6.688,  0.0956651,   0.5618,   0.286995,    6.852
"Line.L36",   2,    17.0275,        0,        0,    1.13881,    6.688,  0.0956324,   0.5616,   0.286995,    6.851
"Line.L37",   1,          0,        0,        0,          0,        0,          0,        0,    2.87838,        0
"Line.L37",   2,          0,        0,        0,          0,        0,          0,        0,    2.87838,        0
"Line.L38",   1,          0,        0,        0,          0,        0,          0,        0,    3.14472,        0
"Line.L38",   2,          0,        0,        0,          0,        0,          0,        0,    3.14472,        0
"Line.L39",   1,          0,        0,        0,          0,        0,          0,        0,    1.57326,        0
"Line.L39",   2,          0,        0,        0,          0,        0,          0,        0,    1.57326,        0
"Line.L40",   1,          0,        0,        0,          0,        0,          0,        0,    1.53083,        0
"Line.L40",   2,          0,        0,        0,          0,        0,          0,        0,    1.53083,        0
"Line.L41",   1,    16.5179,    5.506,    2.753,    1.56347,    9.465,   0.580506,    3.514,    1.74152,    11.59
"Line.L41",   2,    16.5186,        0,        0,     1.5636,    9.466,   0.580493,    3.514,    1.74152,    11.59
"Line.L42",   1,          0,        0,        0,          0,        0,          0,        0,    3.13827,        0
"Line.L42",   2,          0,        0,        0,          0,        0,          0,        0,    3.13827,        0
"Line.L43",   1,    15.0075,    5.002,    2.501,   0.655711,    4.369,   0.411373,    2.741,    1.23412,    2.689
"Line.L43",   2,     15.008,        0,        0,    0.65583,     4.37,   0.411402,    2.741,    1.23412,    2.689
"Line.L44",   1,          0,        0,        0,          0,        0,          0,        0,    2.87715,        0
"Line.L44",   2,          0,        0,        0,          0,        0,          0,        0,    2.87715,        0
"Line.L45",   1,    14.0652,    4.688,    2.344,   0.958019,    6.811,   0.774166,    5.504,     2.3225,    11.23
"Line.L45",   2,    14.0659,        0,        0,   0.957975,    6.811,   0.774148,    5.504,     2.3225,    11.23
"Line.L46",   1,          0,        0,        0,          0,        0,          0,        0,    1.43848,        0
"Line.L46",   2,          0,        0,        0,          0,        0,          0,        0,    1.43848,        0
"Line.L47",   1,    5.81485,    1.938,   0.9691,   0.319838,      5.5,   0.114551,     1.97,   0.343654,      4.9
"Line.L47",   2,     5.8152,        0,        0,   0.320029,    5.503,   0.114491,    1.969,   0.343654,    4.903
"Line.L48",   1,    5.34762,    1.783,   0.8913,   0.493668,    9.232,   0.699146,    13.07,    2.09744,    21.65
"Line.L48",   2,    5.34815,        0,        0,   0.493979,    9.236,   0.699174,    13.07,    2.09744,    21.65
"Line.L49",   1,    1.49616,   0.4987,   0.2494,   0.831094,    55.55,   0.938917,    62.76,    2.81675,    103.9
"Line.L49",   2,    1.49662,        0,        0,   0.830911,    55.52,   0.938806,    62.73,    2.81675,    103.9
"Line.L50",   1,   0.478428,   0.1595,  0.07974,   0.480295,    100.4,   0.479751,    100.3,    1.43925,    198.5
"Line.L50",   2,   0.478815,        0,        0,   0.480061,    100.3,   0.479699,    100.2,    1.43925,      199
"Line.L51",   1, 0.00204293, 0.000681, 0.0003405, 0.000641589,    31.41, 0.000238557,    11.68, 0.00071567,    21.41
"Line.L51",   2, 5.06784E-008,        0,        0, 2.63932E-008,    52.08, 2.74478E-008,    54.16, 0.00071567,    105.9
"Line.L52",   1,    74.4799,    18.62,    12.41,     4.1947,    5.632,    2.27326,    3.052,    6.81977,    8.096
"Line.L52",   2,    74.4805,        0,        0,     4.1949,    5.632,    2.27329,    3.052,    6.81977,    8.096
"Line.L53",   1,    73.0233,    18.26,    12.17,    2.89086,    3.959,   0.835339,    1.144,    2.50602,    4.263
"Line.L53",   2,    73.0237,        0,        0,    2.89099,    3.959,   0.835364,    1.144,    2.50602,    4.263
"Line.L54",   1,    1.49572,   0.4986,   0.2493,   0.787162,    52.63,   0.723277,    48.36,    2.16983,    99.77
"Line.L54",   2,    1.49649,        0,        0,    0.78741,    52.62,    0.72326,    48.33,    2.16983,    99.89
"Line.L55",   1,    71.5292,    23.84,    11.92,    2.27326,    3.178,    1.06856,    1.494,    3.20569,    3.551
"Line.L55",   2,    71.5303,        0,        0,    2.27321,    3.178,    1.06854,    1.494,    3.20569,     3.55
"Line.L56",   1,   0.806441,   0.2688,   0.1344,   0.807211,    100.1,   0.807312,    100.1,    2.42194,    199.6
"Line.L56",   2,   0.807256,        0,        0,   0.807256,      100,   0.807256,      100,    2.42194,      200
"Line.L57",   1,          0,        0,        0,          0,        0,          0,        0,    4.75636,        0
"Line.L57",   2,          0,        0,        0,          0,        0,          0,        0,    4.75636,        0
"Line.L58",   1,     69.945,    23.32,    11.66,    2.89035,    4.132,     2.6536,    3.794,    7.96081,    6.278
"Line.L58",   2,    69.9473,        0,        0,    2.88985,    4.131,    2.65356,    3.794,    7.96081,    6.277
"Line.L59",   1,          0,        0,        0,          0,        0,          0,        0,    2.41942,        0
"Line.L59",   2,          0,        0,        0,          0,        0,          0,        0,    2.41942,        0
"Line.L60",   1, 0.00362035, 0.001207, 0.0006034, 0.000417396,    11.53, 0.00011318,    3.126, 0.000339539,    8.889
"Line.L60",   2, 3.23496E-006,        0,        0, 2.53945E-007,     7.85, 1.19367E-007,     3.69, 0.000339539,    4.684
"Line.L61",   1,    14.0957,    4.699,    2.349,    3.07445,    21.81,    2.38672,    16.93,    7.16015,    36.34
"Line.L61",   2,    14.1037,        0,        0,     3.0737,    21.79,    2.38667,    16.92,    7.16015,    36.31
"Line.L62",   1,    12.6366,    4.212,    2.106,    1.64815,    13.04,    1.27656,     10.1,    3.82968,    19.63
"Line.L62",   2,    12.6422,        0,        0,    1.64768,    13.03,    1.27642,     10.1,    3.82968,    19.61
"Line.L63",   1,    11.1962,    3.732,    1.866,    2.96313,    26.47,    2.72761,    24.36,    8.18282,    46.82
"Line.L63",   2,    11.2077,        0,        0,    2.96245,    26.43,     2.7273,    24.33,    8.18282,    46.74
"Line.L64",   1,    8.35078,    2.784,    1.392,     3.7459,    44.86,    2.89411,    34.66,    8.68234,    76.73
"Line.L64",   2,    8.36563,        0,        0,     3.7444,    44.76,    2.89427,     34.6,    8.68234,    76.54
"Line.L65",   1,    2.88456,   0.9615,   0.4808,    2.89547,    100.4,    2.89427,    100.3,     8.6828,    198.6
"Line.L65",   2,    2.89438,        0,        0,    2.89438,      100,    2.89438,      100,     8.6828,      200
"Line.L66",   1,          0,        0,        0,          0,        0,          0,        0,     13.286,        0
"Line.L66",   2,          0,        0,        0,          0,        0,          0,        0,     13.286,        0
"Line.L67",   1,    33.4737,    11.16,    5.579,    2.07932,    6.212,    3.77889,    11.29,    11.3367,    15.61
"Line.L67",   2,    33.4746,        0,        0,    2.07959,    6.212,    3.77887,    11.29,    11.3367,    15.61
"Line.L68",   1,    16.7828,    5.594,    2.797,    1.10058,    6.558,    1.94289,    11.58,    5.82868,    16.64
"Line.L68",   2,    16.7835,        0,        0,    1.10045,    6.557,    1.94289,    11.58,    5.82868,    16.64
"Line.L69",   1,          0,        0,        0,          0,        0,          0,        0,     11.071,        0
"Line.L69",   2,          0,        0,        0,          0,        0,          0,        0,     11.071,        0
"Line.L70",   1,          0,        0,        0,          0,        0,          0,        0,    6.64179,        0
"Line.L70",   2,          0,        0,        0,          0,        0,          0,        0,    6.64179,        0
"Line.L71",   1,          0,        0,        0,          0,        0,          0,        0,    4.42795,        0
"Line.L71",   2,          0,        0,        0,          0,        0,          0,        0,    4.42795,        0
"Line.L72",   1,          0,        0,        0,          0,        0,          0,        0,    13.8759,        0
"Line.L72",   2,          0,        0,        0,          0,        0,          0,        0,    13.8759,        0
"Line.L73",   1,    28.8557,    9.619,    4.809,    5.48223,       19,    4.77902,    16.56,    14.3371,     30.6
"Line.L73",   2,    28.8563,        0,        0,    5.48237,       19,    4.77903,    16.56,    14.3371,     30.6
"Line.L74",   1,          0,        0,        0,          0,        0,          0,        0,    9.14914,        0
"Line.L74",   2,          0,        0,        0,          0,        0,          0,        0,    9.14914,        0
"Line.L75",   1,          0,        0,        0,          0,        0,          0,        0,    4.72465,        0
"Line.L75",   2,          0,        0,        0,          0,        0,          0,        0,    4.72465,        0
"Line.L76",   1,    9.24776,    3.083,    1.541,   0.593691,     6.42,   0.218062,    2.358,   0.654186,     6.99
"Line.L76",   2,    9.24893,        0,        0,   0.593878,    6.421,   0.218095,    2.358,   0.654186,    6.993
"Line.L77",   1,    9.61735,    3.206,    1.603,    3.61033,    37.54,    4.87349,    50.67,    14.6205,    64.04
"Line.L77",   2,    9.61868,        0,        0,     3.6108,    37.54,    4.87355,    50.67,    14.6205,    64.06
"Line.L78",   1,    7.62781,    2.543,    1.271,    1.12202,    14.71,    1.69233,    22.19,    5.07699,    36.39
"Line.L78",   2,    7.62811,        0,        0,      1.122,    14.71,    1.69233,    22.19,    5.07699,    36.39
"Line.L79",   1,    1.39405,   0.4647,   0.2323,    1.39477,    100.1,    1.39466,      100,    4.18398,    199.8
"Line.L79",   2,    1.39464,        0,        0,    1.39464,      100,    1.39464,      100,    4.18398,      200
"Line.L80",   1,    6.23681,    2.079,    1.039,    1.57355,    25.23,    1.66187,    26.65,    4.98562,    51.26
"Line.L80",   2,    6.23824,        0,        0,    1.57376,    25.23,     1.6619,    26.64,    4.98562,    51.25
"Line.L81",   1,    4.61762,    1.539,   0.7696,    2.56395,    55.53,    2.89513,     62.7,    8.68539,    104.2
"Line.L81",   2,    4.61816,        0,        0,    2.56397,    55.52,    2.89513,    62.69,    8.68539,    104.2
"Line.L82",   1,    2.25974,   0.7532,   0.3766,     1.1912,    52.71,    1.36826,    60.55,    4.10479,    99.86
"Line.L82",   2,    2.26045,        0,        0,    1.19107,    52.69,    1.36824,    60.53,    4.10479,    99.93
"Line.L83",   1,          0,        0,        0,          0,        0,          0,        0,    7.08483,        0
"Line.L83",   2,          0,        0,        0,          0,        0,          0,        0,    7.08483,        0
"Line.L84",   1,   0.786972,   0.2623,   0.1312,   0.787692,    100.1,   0.787775,    100.1,    2.36332,    199.6
"Line.L84",   2,   0.787788,        0,        0,   0.787788,      100,   0.787788,      100,    2.36332,      200
