Element, Terminal,  I1, %Normal, %Emergency, I2, %I2/I1, I0, %I0/I1, Iresidual, %NEMA
"Vsource.SOURCE",   1,      16959,        0,        0,    1071.29,    6.317,    136.945,   0.8075,    410.836,    5.313
"Vsource.SOURCE",   2,      16959,        0,        0,    1071.29,    6.317,    136.945,   0.8075,    410.836,    5.313
"Transformer.REG1A",   1,      16959,     2220,     1628,    1071.29,    6.317,    136.945,   0.8075, 7.80591E-009,    5.313
"Transformer.REG1A",   2,    15417.3,        0,        0,    973.897,    6.317,    124.496,   0.8075, 7.80591E-009,    5.313
"Line.L115",   1,    15417.3,     2570,     2570,    973.897,    6.317,    124.496,   0.8075,    373.487,    5.313
"Line.L115",   2,    15417.3,        0,        0,    973.897,    6.317,    124.496,   0.8075,    373.487,    5.313
"Line.L1",   1,          0,        0,        0,          0,        0,          0,        0,    3.11577,        0
"Line.L1",   2,          0,        0,        0,          0,        0,          0,        0,    3.11577,        0
"Line.L2",   1,          0,        0,        0,          0,        0,          0,        0,    15.5252,        0
"Line.L2",   2,          0,        0,        0,          0,        0,          0,        0,    15.5252,        0
"Line.L3",   1,    15410.6,     2568,     2568,    973.744,    6.319,    124.141,   0.8056,    372.422,    5.327
"Line.L3",   2,    15410.7,        0,        0,    973.744,    6.319,     124.14,   0.8055,    372.422,    5.327
"Line.L4",   1,          0,        0,        0,          0,        0,          0,        0,    6.27694,        0
"Line.L4",   2,          0,        0,        0,          0,        0,          0,        0,    6.27694,        0
"Line.L5",   1,          0,        0,        0,          0,        0,          0,        0,    9.24894,        0
"Line.L5",   2,          0,        0,        0,          0,        0,          0,        0,    9.24894,        0
"Line.L6",   1,          0,        0,        0,          0,        0,          0,        0,    6.14417,        0
"Line.L6",   2,          0,        0,        0,          0,        0,          0,        0,    6.14417,        0
"Line.L7",   1,    15409.9,     2568,     2568,    972.806,    6.313,    125.132,    0.812,    375.397,    5.317
"Line.L7",   2,    15409.9,        0,        0,    972.806,    6.313,    125.132,    0.812,    375.397,    5.317
"Line.L8",   1,          0,        0,        0,          0,        0,          0,        0,    2.95612,        0
"Line.L8",   2,          0,        0,        0,          0,        0,          0,        0,    2.95612,        0
"Line.L9",   1,          0,        0,        0,          0,        0,          0,        0,    14.8998,        0
"Line.L9",   2,          0,        0,        0,          0,        0,          0,        0,    14.8998,        0
"Line.L10",   1,    15405.3,     2568,     2568,    968.919,     6.29,    129.443,   0.8402,    388.328,    5.273
"Line.L10",   2,    15405.3,        0,        0,    968.919,     6.29,    129.443,   0.8402,    388.328,    5.273
"Line.L11",   1,          0,        0,        0,          0,        0,          0,        0,    8.51711,        0
"Line.L11",   2,          0,        0,        0,          0,        0,          0,        0,    8.51711,        0
"Line.L12",   1,          0,        0,        0,          0,        0,          0,        0,    12.5496,        0
"Line.L12",   2,          0,        0,        0,          0,        0,          0,        0,    12.5496,        0
"Line.L13",   1,    15408.3,     5136,     2568,    964.727,    6.261,    132.638,   0.8608,    397.914,    5.265
"Line.L13",   2,    15408.3,        0,        0,    964.727,    6.261,    132.638,   0.8608,    397.914,    5.265
"Line.L14",   1,          0,        0,        0,          0,        0,          0,        0,    5.58699,        0
"Line.L14",   2,          0,        0,        0,          0,        0,          0,        0,    5.58699,        0
"Line.L15",   1,          0,        0,        0,          0,        0,          0,        0,    2.93118,        0
"Line.L15",   2,          0,        0,        0,          0,        0,          0,        0,    2.93118,        0
"Line.L16",   1,          0,        0,        0,          0,        0,          0,        0,     5.1731,        0
"Line.L16",   2,          0,        0,        0,          0,        0,          0,        0,     5.1731,        0
"Line.L17",   1,          0,        0,        0,          0,        0,          0,        0,    2.58639,        0
"Line.L17",   2,          0,        0,        0,          0,        0,          0,        0,    2.58639,        0
"Line.L18",   1,          0,        0,        0,          0,        0,          0,        0,    6.25502,        0
"Line.L18",   2,          0,        0,        0,          0,        0,          0,        0,    6.25502,        0
"Line.L19",   1,    15388.1,     5129,     2565,    963.154,    6.259,    134.902,   0.8767,    404.706,    5.253
"Line.L19",   2,    15388.1,        0,        0,    963.154,    6.259,    134.902,   0.8767,    404.706,    5.253
"Line.L20",   1,          0,        0,        0,          0,        0,          0,        0,    3.12617,        0
"Line.L20",   2,          0,        0,        0,          0,        0,          0,        0,    3.12617,        0
"Line.L21",   1,          0,        0,        0,          0,        0,          0,        0,    2.86378,        0
"Line.L21",   2,          0,        0,        0,          0,        0,          0,        0,    2.86378,        0
"Line.L22",   1,    15387.4,     5129,     2565,    963.881,    6.264,    134.294,   0.8728,    402.883,    5.257
"Line.L22",   2,    15387.4,        0,        0,    963.881,    6.264,    134.294,   0.8728,    402.883,    5.257
"Line.L23",   1,          0,        0,        0,          0,        0,          0,        0,    2.34939,        0
"Line.L23",   2,          0,        0,        0,          0,        0,          0,        0,    2.34939,        0
"Line.L24",   1,    15386.7,     5129,     2564,     964.07,    6.266,    134.067,   0.8713,    402.201,    5.262
"Line.L24",   2,    15386.7,        0,        0,     964.07,    6.266,    134.067,   0.8713,    402.201,    5.262
"Line.L25",   1,          0,        0,        0,          0,        0,          0,        0,    2.17872,        0
"Line.L25",   2,          0,        0,        0,          0,        0,          0,        0,    2.17872,        0
"Line.L26",   1,    15385.6,     5129,     2564,      963.6,    6.263,    134.553,   0.8745,    403.659,     5.26
"Line.L26",   2,    15385.6,        0,        0,      963.6,    6.263,    134.553,   0.8745,    403.659,     5.26
"Line.L27",   1,          0,        0,        0,          0,        0,          0,        0,    1.92394,        0
"Line.L27",   2,          0,        0,        0,          0,        0,          0,        0,    1.92394,        0
"Line.L28",   1,          0,        0,        0,          0,        0,          0,        0,    2.04805,        0
"Line.L28",   2,          0,        0,        0,          0,        0,          0,        0,    2.04805,        0
"Line.L29",   1,          0,        0,        0,          0,        0,          0,        0,    1.92448,        0
"Line.L29",   2,          0,        0,        0,          0,        0,          0,        0,    1.92448,        0
"Line.L30",   1,    15385.2,     5128,     2564,    963.163,     6.26,    135.022,   0.8776,    405.065,    5.255
"Line.L30",   2,    15385.2,        0,        0,    963.163,     6.26,    135.022,   0.8776,    405.065,    5.255
"Line.L31",   1,      15385,     5128,     2564,     962.88,    6.259,    135.325,   0.8796,    405.975,    5.252
"Line.L31",   2,      15385,        0,        0,     962.88,    6.259,    135.325,   0.8796,    405.975,    5.252
"Line.L32",   1,    15384.9,     5128,     2564,    962.909,    6.259,    135.292,   0.8794,    405.875,    5.253
"Line.L32",   2,    15384.9,        0,        0,    962.909,    6.259,    135.292,   0.8794,    405.875,    5.253
"Line.L33",   1,          0,        0,        0,          0,        0,          0,        0,    1.02397,        0
"Line.L33",   2,          0,        0,        0,          0,        0,          0,        0,    1.02397,        0
"Line.L34",   1,          0,        0,        0,          0,        0,          0,        0,    7.75928,        0
"Line.L34",   2,          0,        0,        0,          0,        0,          0,        0,    7.75928,        0
"Line.L35",   1,          0,        0,        0,          0,        0,          0,        0,    3.16097,        0
"Line.L35",   2,          0,        0,        0,          0,        0,          0,        0,    3.16097,        0
"Line.L36",   1,    18.5834,    6.194,    3.097,    1.24882,     6.72,   0.125061,    0.673,   0.375182,    7.081
"Line.L36",   2,    18.5841,        0,        0,    1.24892,     6.72,    0.12502,   0.6727,   0.375182,    7.081
"Line.L37",   1,          0,        0,        0,          0,        0,          0,        0,    3.12334,        0
"Line.L37",   2,          0,        0,        0,          0,        0,          0,        0,    3.12334,        0
"Line.L38",   1,          0,        0,        0,          0,        0,          0,        0,    3.45965,        0
"Line.L38",   2,          0,        0,        0,          0,        0,          0,        0,    3.45965,        0
"Line.L39",   1,          0,        0,        0,          0,        0,          0,        0,    1.73859,        0
"Line.L39",   2,          0,        0,        0,          0,        0,          0,        0,    1.73859,        0
"Line.L40",   1,          0,        0,        0,          0,        0,          0,        0,    1.68703,        0
"Line.L40",   2,          0,        0,        0,          0,        0,          0,        0,    1.68703,        0
"Line.L41",   1,    18.0225,    6.007,    3.004,    1.70721,    9.473,   0.619924,     3.44,    1.85977,    11.37
"Line.L41",   2,    18.0232,        0,        0,    1.70735,    9.473,   0.619907,     3.44,    1.85977,    11.37
"Line.L42",   1,          0,        0,        0,          0,        0,          0,        0,    3.40747,        0
"Line.L42",   2,          0,        0,        0,          0,        0,          0,        0,    3.40747,        0
"Line.L43",   1,    16.3821,    5.461,     2.73,   0.713642,    4.356,   0.419669,    2.562,    1.25901,    2.496
"Line.L43",   2,    16.3827,        0,        0,   0.713767,    4.357,     0.4197,    2.562,    1.25901,    2.497
"Line.L44",   1,          0,        0,        0,          0,        0,          0,        0,     3.1249,        0
"Line.L44",   2,          0,        0,        0,          0,        0,          0,        0,     3.1249,        0
"Line.L45",   1,    15.3587,     5.12,     2.56,    1.08204,    7.045,   0.881595,     5.74,    2.64478,    11.74
"Line.L45",   2,    15.3594,        0,        0,    1.08199,    7.044,   0.881574,     5.74,    2.64478,    11.74
"Line.L46",   1,          0,        0,        0,          0,        0,          0,        0,    1.56284,        0
"Line.L46",   2,          0,        0,        0,          0,        0,          0,        0,    1.56284,        0
"Line.L47",   1,    6.31225,    2.104,    1.052,   0.348371,    5.519,   0.124055,    1.965,   0.372165,    4.938
"Line.L47",   2,    6.31262,        0,        0,   0.348578,    5.522,    0.12399,    1.964,   0.372165,    4.941
"Line.L48",   1,    5.87757,    1.959,   0.9796,    0.56897,     9.68,   0.794572,    13.52,    2.38372,    22.55
"Line.L48",   2,    5.87815,        0,        0,   0.569308,    9.685,   0.794603,    13.52,    2.38372,    22.55
"Line.L49",   1,    1.64131,   0.5471,   0.2736,   0.916995,    55.87,    1.03407,       63,    3.10221,    104.8
"Line.L49",   2,    1.64181,        0,        0,   0.916799,    55.84,    1.03395,    62.98,    3.10221,    104.8
"Line.L50",   1,   0.519783,   0.1733,  0.08663,   0.521811,    100.4,   0.521221,    100.3,    1.56366,    198.5
"Line.L50",   2,   0.520204,        0,        0,   0.521558,    100.3,   0.521164,    100.2,    1.56366,      199
"Line.L51",   1, 0.00221784, 0.0007393, 0.0003696, 0.000697086,    31.43, 0.000258982,    11.68, 0.000776946,    21.45
"Line.L51",   2, 5.49766E-008,        0,        0, 2.86513E-008,    52.12, 2.97895E-008,    54.19, 0.000776946,      106
"Line.L52",   1,    167.871,    41.97,    27.98,    5.34288,    3.183,    2.82354,    1.682,    8.47062,    4.232
"Line.L52",   2,    167.871,        0,        0,     5.3431,    3.183,    2.82358,    1.682,    8.47062,    4.232
"Line.L53",   1,    168.977,    42.24,    28.16,    3.91799,    2.319,     1.2566,   0.7437,     3.7698,     2.92
"Line.L53",   2,    168.977,        0,        0,    3.91813,    2.319,    1.25663,   0.7437,     3.7698,     2.92
"Line.L54",   1,     237.44,    79.15,    39.57,   0.862322,   0.3632,   0.793676,   0.3343,    2.38103,   0.5933
"Line.L54",   2,     237.44,        0,        0,    0.86259,   0.3633,   0.793658,   0.3343,    2.38103,   0.5934
"Line.L55",   1,    90.5303,    30.18,    15.09,    3.23816,    3.577,    1.48111,    1.636,    4.44333,    4.094
"Line.L55",   2,    90.5315,        0,        0,    3.23813,    3.577,    1.48109,    1.636,    4.44333,    4.094
"Line.L56",   1,    238.096,    79.37,    39.68,   0.888345,   0.3731,   0.888445,   0.3731,    2.66533,   0.6326
"Line.L56",   2,    238.096,        0,        0,   0.888392,   0.3731,   0.888384,   0.3731,    2.66533,   0.6325
"Line.L57",   1,          0,        0,        0,          0,        0,          0,        0,    5.21438,        0
"Line.L57",   2,          0,        0,        0,          0,        0,          0,        0,    5.21438,        0
"Line.L58",   1,    88.7936,     29.6,     14.8,    3.75569,     4.23,    3.21593,    3.622,     9.6478,    6.128
"Line.L58",   2,     88.796,        0,        0,    3.75524,    4.229,    3.21589,    3.622,     9.6478,    6.127
"Line.L59",   1,          0,        0,        0,          0,        0,          0,        0,    2.65988,        0
"Line.L59",   2,          0,        0,        0,          0,        0,          0,        0,    2.65988,        0
"Line.L60",   1, 0.00393408, 0.001311, 0.0006557, 0.000454224,    11.55, 0.000122826,    3.122, 0.000368479,     8.91
"Line.L60",   2, 3.5152E-006,        0,        0, 2.75409E-007,    7.835, 1.29657E-007,    3.688, 0.000368479,    4.649
"Line.L61",   1,    15.3924,    5.131,    2.565,    3.35475,    21.79,    2.60828,    16.95,    7.82483,    36.38
"Line.L61",   2,    15.4011,        0,        0,    3.35393,    21.78,    2.60823,    16.94,    7.82483,    36.35
"Line.L62",   1,    13.8074,    4.602,    2.301,    1.80417,    13.07,    1.39417,     10.1,    4.18252,     19.6
"Line.L62",   2,    13.8135,        0,        0,    1.80366,    13.06,    1.39402,    10.09,    4.18252,    19.59
"Line.L63",   1,    12.2211,    4.074,    2.037,    3.25016,    26.59,    2.99085,    24.47,    8.97254,    47.04
"Line.L63",   2,    12.2336,        0,        0,    3.24942,    26.56,    2.99052,    24.45,    8.97254,    46.96
"Line.L64",   1,    9.11108,    3.037,    1.519,    4.10599,    45.07,    3.18171,    34.92,    9.54514,    77.22
"Line.L64",   2,    9.12722,        0,        0,    4.10437,    44.97,    3.18188,    34.86,    9.54514,    77.02
"Line.L65",   1,    3.17132,    1.057,   0.5286,    3.18317,    100.4,    3.18188,    100.3,    9.54563,    198.6
"Line.L65",   2,      3.182,        0,        0,      3.182,      100,      3.182,      100,    9.54563,      200
"Line.L66",   1,          0,        0,        0,          0,        0,          0,        0,    16.0751,        0
"Line.L66",   2,          0,        0,        0,          0,        0,          0,        0,    16.0751,        0
"Line.L67",   1,    40.4059,    13.47,    6.734,    2.59779,    6.429,    4.60878,    11.41,    13.8263,    16.03
"Line.L67",   2,    40.4069,        0,        0,    2.59811,     6.43,    4.60876,    11.41,    13.8263,    16.03
"Line.L68",   1,      20.27,    6.757,    3.378,    1.27723,    6.301,      2.282,    11.26,      6.846,     16.1
"Line.L68",   2,    20.2709,        0,        0,    1.27708,      6.3,      2.282,    11.26,      6.846,     16.1
"Line.L69",   1,          0,        0,        0,          0,        0,          0,        0,    13.3951,        0
"Line.L69",   2,          0,        0,        0,          0,        0,          0,        0,    13.3951,        0
"Line.L70",   1,          0,        0,        0,          0,        0,          0,        0,    8.03613,        0
"Line.L70",   2,          0,        0,        0,          0,        0,          0,        0,    8.03613,        0
"Line.L71",   1,          0,        0,        0,          0,        0,          0,        0,    5.35752,        0
"Line.L71",   2,          0,        0,        0,          0,        0,          0,        0,    5.35752,        0
"Line.L72",   1,          0,        0,        0,          0,        0,          0,        0,    16.7438,        0
"Line.L72",   2,          0,        0,        0,          0,        0,          0,        0,    16.7438,        0
"Line.L73",   1,    34.8332,    11.61,    5.806,    6.59402,    18.93,     5.7692,    16.56,    17.3076,    30.82
"Line.L73",   2,    34.8339,        0,        0,    6.59419,    18.93,    5.76921,    16.56,    17.3076,    30.82
"Line.L74",   1,          0,        0,        0,          0,        0,          0,        0,    10.9977,        0
"Line.L74",   2,          0,        0,        0,          0,        0,          0,        0,    10.9977,        0
"Line.L75",   1,          0,        0,        0,          0,        0,          0,        0,    5.74351,        0
"Line.L75",   2,          0,        0,        0,          0,        0,          0,        0,    5.74351,        0
"Line.L76",   1,    11.1835,    3.728,    1.864,   0.765494,    6.845,   0.306888,    2.744,   0.920664,    8.022
"Line.L76",   2,    11.1849,        0,        0,   0.765728,    6.846,   0.306935,    2.744,   0.920664,    8.026
"Line.L77",   1,    11.6607,    3.887,    1.943,    4.36134,     37.4,     5.8626,    50.28,    17.5878,    64.33
"Line.L77",   2,    11.6623,        0,        0,    4.36192,     37.4,    5.86266,    50.27,    17.5878,    64.35
"Line.L78",   1,     9.2152,    3.072,    1.536,     1.3533,    14.69,    2.03386,    22.07,    6.10158,    36.02
"Line.L78",   2,    9.21554,        0,        0,    1.35329,    14.68,    2.03386,    22.07,    6.10158,    36.02
"Line.L79",   1,    1.64637,   0.5488,   0.2744,    1.64722,    100.1,    1.64709,      100,    4.94128,    199.8
"Line.L79",   2,    1.64706,        0,        0,    1.64706,      100,    1.64706,      100,    4.94128,      200
"Line.L80",   1,    7.57245,    2.524,    1.262,    1.91889,    25.34,     2.0244,    26.73,    6.07319,    51.44
"Line.L80",   2,    7.57414,        0,        0,    1.91914,    25.34,    2.02443,    26.73,    6.07319,    51.44
"Line.L81",   1,    5.60507,    1.868,   0.9342,    3.11847,    55.64,    3.51851,    62.77,    10.5555,    104.5
"Line.L81",   2,     5.6057,        0,        0,    3.11849,    55.63,    3.51851,    62.77,    10.5555,    104.5
"Line.L82",   1,    2.73867,   0.9129,   0.4564,    1.44112,    52.62,    1.65599,    60.47,    4.96797,    99.86
"Line.L82",   2,    2.73951,        0,        0,    1.44097,     52.6,    1.65596,    60.45,    4.96797,    99.93
"Line.L83",   1,          0,        0,        0,          0,        0,          0,        0,    8.61264,        0
"Line.L83",   2,          0,        0,        0,          0,        0,          0,        0,    8.61264,        0
"Line.L84",   1,   0.956698,   0.3189,   0.1594,   0.957552,    100.1,   0.957646,    100.1,    2.87294,    199.6
"Line.L84",   2,   0.957664,        0,        0,   0.957664,      100,   0.957664,      100,    2.87294,      200
